  can0  0B0   [8]  66 00 42 00 7E 01 4C 09
  can0  0B0   [8]  6C 00 7E 00 7E 01 50 09
  can0  0AD   [8]  FC 07 00 00 00 00 D2 00
  can0  0AC   [8]  6C 00 95 00 33 B3 00 00
  can0  0AB   [8]  00 00 00 00 00 00 00 00
  can0  0AA   [8]  06 00 08 06 00 01 C1 01
  can0  0A8   [8]  22 00 6E 4D C9 FF 16 01
  can0  0A7   [8]  41 09 F6 00 D7 FF F3 00
  can0  0B0   [8]  70 00 B3 00 7E 01 4A 09
  can0  0A6   [8]  06 FF 08 00 E8 00 14 00
  can0  0A5   [8]  B3 07 7E 01 7D 02 F8 03
  can0  0A4   [8]  01 00 00 00 00 00 00 00
  can0  0A3   [8]  9A 0D 70 1E E7 9D 87 1E
  can0  0B0   [8]  72 00 B5 00 7B 01 54 09
  can0  0B0   [8]  74 00 A1 00 7A 01 4A 09
  can0  0B0   [8]  74 00 58 00 79 01 4E 09
  can0  0AD   [8]  2F 07 00 00 00 00 E6 00
  can0  0AC   [8]  74 00 47 00 37 B3 00 00
  can0  0AB   [8]  00 00 00 00 00 00 00 00
  can0  0AA   [8]  06 00 08 06 00 01 C1 01
  can0  0A8   [8]  22 00 6E 4D 27 00 99 00
  can0  0A7   [8]  4C 09 D6 00 D1 FF D1 00
  can0  0B0   [8]  75 00 30 00 7A 01 4C 09
  can0  0A6   [8]  F5 FF 8E 00 88 FF 18 00
  can0  0A5   [8]  40 04 79 01 74 02 F8 03
  can0  0A4   [8]  01 00 00 00 00 00 00 00
  can0  0A3   [8]  9A 09 60 1E E7 9D 77 1E
  can0  0B0   [8]  77 00 36 00 7B 01 57 09
  can0  0B0   [8]  78 00 73 00 79 01 4A 09
  can0  0B0   [8]  79 00 A5 00 7B 01 52 09
  can0  0AD   [8]  C8 07 00 00 00 00 EA 00
  can0  0AC   [8]  79 00 C2 00 3B B3 00 00
  can0  0AB   [8]  00 00 00 00 00 00 00 00
  can0  0AA   [8]  06 00 08 06 00 01 C1 01
  can0  0A8   [8]  22 00 6E 4D E3 FF 63 01
  can0  0A7   [8]  52 09 F2 00 D8 FF EF 00
  can0  0B0   [8]  7A 00 C2 00 7A 01 4E 09
  can0  0A6   [8]  40 01 E9 FF E2 FE 18 00
  can0  0A5   [8]  D9 00 7B 01 77 02 F8 03
  can0  0A4   [8]  01 00 00 00 00 00 00 00
  can0  0A3   [8]  9B 0D 60 1E E7 9D 77 1E
  can0  0B0   [8]  7A 00 B3 00 7A 01 4E 09
  can0  0B0   [8]  7D 00 75 00 7B 01 4E 09
  can0  0B0   [8]  7F 00 30 00 7C 01 4E 09
  can0  0AD   [8]  D6 07 00 00 00 00 FD 00
  can0  0AC   [8]  7F 00 2E 00 3F B3 00 00
  can0  0AB   [8]  00 00 00 00 00 00 00 00
  can0  0AA   [8]  06 00 08 06 00 01 C1 01
  can0  0A8   [8]  22 00 6E 4D FE FF 5A 00
  can0  0A7   [8]  52 09 EE 00 C4 FF E6 00
  can0  0B0   [8]  80 00 3A 00 7E 01 4E 09
  can0  0A6   [8]  26 00 A1 FF 35 00 18 00
  can0  0A5   [8]  82 0B 7C 01 78 02 F9 03
  can0  0A4   [8]  01 00 00 00 00 00 00 00
  can0  0A3   [8]  9D 0D 70 1E E7 9D 87 1E
  can0  0B0   [8]  80 00 80 00 7E 01 4A 09
  can0  0AE   [8]  10 00 4C 20 18 11 22 20
  can0  0A9   [8]  97 00 FA 00 F6 01 9A 04
  can0  0A2   [8]  F0 D8 F0 D8 CA FD 00 00
  can0  0A1   [8]  24 01 22 08 3D 08 F0 D8
  can0  0A0   [8]  27 01 29 01 2A 01 23 01
  can0  0B0   [8]  81 00 AD 00 80 01 4A 09
  can0  0B0   [8]  7E 00 D4 00 7F 01 4A 09
  can0  0AD   [8]  12 07 00 00 00 00 F1 00
  can0  0AC   [8]  7E 00 D7 00 43 B3 00 00
  can0  0AB   [8]  00 00 00 00 00 00 00 00
  can0  0AA   [8]  06 00 08 06 00 01 C1 01
  can0  0A8   [8]  22 00 6E 4D 04 00 A5 01
  can0  0A7   [8]  52 09 D7 00 E3 FF D5 00
  can0  0B0   [8]  7C 00 B4 00 81 01 46 09
  can0  0A6   [8]  9D FE F5 FF 54 01 1E 00
  can0  0A5   [8]  41 08 7F 01 7F 02 F9 03
  can0  0A4   [8]  01 00 00 00 00 00 00 00
  can0  0A3   [8]  9B 0D 60 1E E8 A1 77 1E
  can0  0B0   [8]  7A 00 41 00 82 01 4E 09
  can0  0B0   [8]  7A 00 42 00 82 01 52 09
  can0  0B0   [8]  79 00 55 00 83 01 50 09
  can0  0AD   [8]  8F 08 00 00 00 00 EF 00
  can0  0AC   [8]  79 00 67 00 47 B3 00 00
  can0  0AB   [8]  00 00 00 00 00 00 00 00
  can0  0AA   [8]  06 00 08 06 00 01 C1 01
  can0  0A8   [8]  22 00 6E 4D DE FF CA 00
  can0  0A7   [8]  52 09 04 01 E5 FF 03 01
  can0  0B0   [8]  79 00 72 00 80 01 4E 09
  can0  0A6   [8]  5E FF BF 00 CE FF 15 00
  can0  0A5   [8]  15 05 83 01 85 02 F9 03
  can0  0A4   [8]  01 00 00 00 00 00 00 00
  can0  0A3   [8]  9B 0D 80 1E E7 9D 97 1E
  can0  0B0   [8]  73 00 A2 00 7F 01 4C 09
  can0  0B0   [8]  6F 00 91 00 80 01 4C 09
  can0  0B0   [8]  6C 00 3E 00 7D 01 47 09
  can0  0AD   [8]  A1 07 00 00 00 00 D8 00
  can0  0AC   [8]  6C 00 38 00 4B B3 00 00
  can0  0AB   [8]  00 00 00 00 00 00 00 00
  can0  0AA   [8]  06 00 08 06 00 01 C1 01
  can0  0A8   [8]  22 00 6E 4D 15 00 6D 00
  can0  0A7   [8]  4A 09 E8 00 C7 FF E1 00
  can0  0B0   [8]  6B 00 34 00 7D 01 4E 09
  can0  0A6   [8]  5B 00 09 00 64 FF 15 00
  can0  0A5   [8]  BF 01 7D 01 7B 02 F9 03
  can0  0A4   [8]  01 00 00 00 00 00 00 00
  can0  0A3   [8]  98 0D 80 1E E7 9D 97 1E
  can0  0B0   [8]  6A 00 30 00 7A 01 50 09
  can0  0B0   [8]  68 00 2E 00 78 01 54 09
  can0  0B0   [8]  67 00 79 00 76 01 4A 09
  can0  0AD   [8]  D5 07 00 00 00 00 CA 00
  can0  0AC   [8]  67 00 80 00 4F B3 00 00
  can0  0AB   [8]  00 00 00 00 00 00 00 00
  can0  0AA   [8]  06 00 08 06 00 01 C1 01
  can0  0A8   [8]  22 00 6E 4D DD FF FA 00
  can0  0A7   [8]  4C 09 EE 00 CE FF E9 00
  can0  0B0   [8]  67 00 A8 00 73 01 4E 09
  can0  0A6   [8]  CE 00 1A FF F1 FF 13 00
  can0  0A5   [8]  5F 0C 76 01 6F 02 F7 03
  can0  0A4   [8]  01 00 00 00 00 00 00 00
  can0  0A3   [8]  97 0D 80 1E E7 9D 87 1E
  can0  0B0   [8]  66 00 9E 00 72 01 46 09
  can0  0B0   [8]  66 00 9B 00 72 01 4C 09
  can0  0B0   [8]  66 00 8D 00 70 01 4A 09
  can0  0AD   [8]  A9 06 00 00 00 00 C7 00
  can0  0AC   [8]  66 00 6E 00 53 B3 00 00
  can0  0AB   [8]  00 00 00 00 00 00 00 00
  can0  0AA   [8]  06 00 08 06 00 01 C1 01
  can0  0A8   [8]  22 00 6E 4D 2A 00 F3 00
  can0  0B0   [8]  66 00 71 00 6F 01 50 09
  can0  0A7   [8]  4A 09 CA 00 E6 FF C8 00
  can0  0A6   [8]  31 FF F1 FF B6 00 17 00
  can0  0A5   [8]  BB 08 70 01 65 02 F6 03
  can0  0A4   [8]  01 00 00 00 00 00 00 00
  can0  0A3   [8]  97 0D 70 1E E7 9D 87 1E
  can0  0B0   [8]  66 00 25 00 71 01 4C 09
  can0  0B0   [8]  66 00 36 00 6F 01 4E 09
  can0  0B0   [8]  66 00 4A 00 70 01 4A 09
  can0  0AD   [8]  06 08 00 00 00 00 CA 00
  can0  0AC   [8]  66 00 4F 00 57 B3 00 00
  can0  0AB   [8]  00 00 00 00 00 00 00 00
  can0  0AA   [8]  06 00 08 06 00 01 C1 01
  can0  0A8   [8]  22 00 6E 4D 17 00 9A 00
  can0  0A7   [8]  52 09 F4 00 DB FF F1 00
  can0  0B0   [8]  66 00 49 00 72 01 50 09
  can0  0A6   [8]  B6 FF 9C 00 88 FF 11 00
  can0  0A5   [8]  F4 04 70 01 65 02 F7 03
  can0  0A4   [8]  01 00 00 00 00 00 00 00
  can0  0A3   [8]  97 0D 70 1E E7 9D 87 1E
  can0  0B0   [8]  6A 00 71 00 73 01 52 09
  can0  0B0   [8]  6C 00 A6 00 73 01 52 09
  can0  0B0   [8]  6E 00 96 00 72 01 46 09
  can0  0AD   [8]  C4 06 00 00 00 00 D5 00
  can0  0AC   [8]  6E 00 8B 00 5B B3 00 00
  can0  0AB   [8]  00 00 00 00 00 00 00 00
  can0  0AA   [8]  06 00 08 06 00 01 C1 01
  can0  0A8   [8]  22 00 6E 4D 1C 00 10 01
  can0  0A7   [8]  4C 09 CE 00 CC FF C7 00
  can0  0B0   [8]  6F 00 81 00 73 01 47 09
  can0  0A6   [8]  F1 00 F7 FF 07 FF 19 00
  can0  0A5   [8]  54 01 72 01 68 02 F8 03
  can0  0A4   [8]  01 00 00 00 00 00 00 00
  can0  0A3   [8]  99 09 70 1E E7 9D 87 1E
  can0  0B0   [8]  6F 00 5B 00 77 01 4E 09
  can0  0B0   [8]  70 00 3C 00 79 01 4E 09
  can0  0B0   [8]  71 00 3C 00 79 01 4E 09
  can0  0AD   [8]  42 08 00 00 00 00 E1 00
  can0  0AC   [8]  71 00 44 00 5F B3 00 00
  can0  0AB   [8]  00 00 00 00 00 00 00 00
  can0  0AA   [8]  06 00 08 06 00 01 C1 01
  can0  0A8   [8]  22 00 6E 4D E5 FF 85 00
  can0  0A7   [8]  4A 09 FB 00 CA FF F5 00
  can0  0B0   [8]  72 00 69 00 7A 01 44 09
  can0  0A6   [8]  63 00 7D FF 12 00 13 00
  can0  0A5   [8]  F2 0B 7A 01 75 02 F8 03
  can0  0A4   [8]  01 00 00 00 00 00 00 00
  can0  0A3   [8]  9A 0D 70 1E E7 9D 77 1E
  can0  0B0   [8]  72 00 AB 00 78 01 47 09
  can0  0B0   [8]  72 00 BE 00 7A 01 50 09
  can0  0B0   [8]  72 00 98 00 7E 01 4C 09
  can0  0AE   [8]  10 00 4C 20 18 11 22 20
  can0  0AD   [8]  D8 06 00 00 00 00 DE 00
  can0  0AC   [8]  72 00 90 00 63 B3 00 00
  can0  0AB   [8]  00 00 00 00 00 00 00 00
  can0  0AA   [8]  06 00 08 06 00 01 C1 01
  can0  0A9   [8]  97 00 FA 00 F8 01 9E 04
  can0  0B0   [8]  73 00 69 00 7F 01 4A 09
  can0  0A8   [8]  22 00 6E 4D 28 00 1A 01
  can0  0A7   [8]  52 09 D0 00 DA FF CD 00
  can0  0A6   [8]  0C FF F8 FF 04 01 1B 00
  can0  0A5   [8]  94 08 7E 01 7D 02 F8 03
  can0  0A4   [8]  01 00 00 00 00 00 00 00
  can0  0B0   [8]  73 00 30 00 7E 01 47 09
  can0  0A3   [8]  9A 0D 60 1E E8 A1 77 1E
  can0  0A2   [8]  F0 D8 F0 D8 CA FD 00 00
  can0  0A1   [8]  24 01 22 08 3D 08 F0 D8
  can0  0A0   [8]  27 01 29 01 2A 01 23 01
  can0  0B0   [8]  73 00 33 00 7F 01 4E 09
  can0  0B0   [8]  73 00 76 00 81 01 50 09
  can0  0AD   [8]  67 08 00 00 00 00 E2 00
  can0  0AC   [8]  73 00 81 00 67 B3 00 00
  can0  0AB   [8]  00 00 00 00 00 00 00 00
  can0  0AA   [8]  06 00 08 06 00 01 C1 01
  can0  0A8   [8]  22 00 6E 4D E8 FF FC 00
  can0  0A7   [8]  52 09 FF 00 D3 FF FB 00
  can0  0B0   [8]  73 00 B6 00 84 01 46 09
  can0  0A6   [8]  39 FF EC 00 DE FF 15 00
  can0  0A5   [8]  51 05 80 01 80 02 F8 03
  can0  0A4   [8]  01 00 00 00 00 00 00 00
  can0  0A3   [8]  9A 0D 70 1E E7 9D 87 1E
  can0  0B0   [8]  72 00 AC 00 85 01 4C 09
  can0  0B0   [8]  71 00 7C 00 83 01 47 09
  can0  0B0   [8]  70 00 2E 00 85 01 4E 09
  can0  0AD   [8]  C1 07 00 00 00 00 E0 00
  can0  0AC   [8]  70 00 26 00 6B B3 00 00
  can0  0AB   [8]  00 00 00 00 00 00 00 00
  can0  0AA   [8]  06 00 08 06 00 01 C1 01
  can0  0A8   [8]  22 00 6E 4D F8 FF 4C 00
  can0  0A7   [8]  4C 09 EC 00 C8 FF E5 00
  can0  0B0   [8]  70 00 31 00 85 01 4C 09
  can0  0A6   [8]  23 00 29 00 B1 FF 16 00
  can0  0A5   [8]  35 02 85 01 88 02 F8 03
  can0  0A4   [8]  01 00 00 00 00 00 00 00
  can0  0A3   [8]  99 0D 70 1E E8 9D 87 1E
  can0  0B0   [8]  6F 00 7B 00 87 01 4E 09
  can0  0B0   [8]  6A 00 9D 00 87 01 4A 09
  can0  0B0   [8]  67 00 9C 00 84 01 4C 09
  can0  0AD   [8]  E7 06 00 00 00 00 C7 00
  can0  0AC   [8]  67 00 93 00 6F B3 00 00
  can0  0AB   [8]  00 00 00 00 00 00 00 00
  can0  0AA   [8]  06 00 08 06 00 01 C1 01
  can0  0A8   [8]  22 00 6E 4D 13 00 21 01
  can0  0A7   [8]  5B 09 D1 00 D5 FF CD 00
  can0  0B0   [8]  65 00 6C 00 85 01 4A 09
  can0  0A6   [8]  01 01 0D FF F6 FF 19 00
  can0  0A5   [8]  28 0D 85 01 87 02 F9 03
  can0  0A4   [8]  01 00 00 00 00 00 00 00
  can0  0A3   [8]  96 0D 70 1E E8 9D 87 1E
  can0  0B0   [8]  64 00 2C 00 83 01 4E 09
  can0  0B0   [8]  63 00 23 00 80 01 4C 09
  can0  0B0   [8]  6A 00 47 00 7D 01 4E 09
  can0  0AD   [8]  41 08 00 00 00 00 D0 00
  can0  0AC   [8]  6A 00 61 00 73 B3 00 00
  can0  0AB   [8]  00 00 00 00 00 00 00 00
  can0  0AA   [8]  06 00 08 06 00 01 C1 01
  can0  0A8   [8]  22 00 6E 4D F2 FF BE 00
  can0  0A7   [8]  52 09 FB 00 D6 FF F7 00
  can0  0B0   [8]  6E 00 8B 00 7A 01 47 09
  can0  0A6   [8]  D5 FF 74 FF B1 00 12 00
  can0  0A5   [8]  E0 09 7D 01 7B 02 FA 03
  can0  0A4   [8]  01 00 00 00 00 00 00 00
  can0  0A3   [8]  9A 0D 60 1E E8 9D 87 1E
  can0  0B0   [8]  70 00 B7 00 7B 01 4A 09
  can0  0B0   [8]  72 00 A1 00 7B 01 50 09
  can0  0B0   [8]  73 00 80 00 7A 01 4E 09
  can0  0AD   [8]  A5 06 00 00 00 00 E0 00
  can0  0AC   [8]  73 00 6F 00 77 B3 00 00
  can0  0AB   [8]  00 00 00 00 00 00 00 00
  can0  0AA   [8]  06 00 08 06 00 01 C1 01
  can0  0A8   [8]  22 00 6E 4D 31 00 D9 00
  can0  0A7   [8]  4E 09 CA 00 E0 FF C7 00
  can0  0B0   [8]  73 00 6A 00 78 01 4C 09
  can0  0A6   [8]  3B FF BD 00 F1 FF 1B 00
  can0  0A5   [8]  6E 06 7A 01 75 02 FA 03
  can0  0A4   [8]  01 00 00 00 00 00 00 00
  can0  0A3   [8]  9A 0D 60 1E E7 9D 77 1E
  can0  0B0   [8]  70 00 30 00 76 01 4A 09
  can0  0B0   [8]  6E 00 4B 00 77 01 4A 09
  can0  0B0   [8]  6C 00 89 00 78 01 4A 09
  can0  0AD   [8]  02 08 00 00 00 00 D2 00
  can0  0AC   [8]  6C 00 9E 00 7B B3 00 00
  can0  0AB   [8]  00 00 00 00 00 00 00 00
  can0  0AA   [8]  06 00 08 06 00 01 C1 01
  can0  0A8   [8]  22 00 6E 4D BD FF 35 01
  can0  0A7   [8]  47 09 F3 00 DF FF F1 00
  can0  0B0   [8]  6C 00 85 00 79 01 4A 09
  can0  0A6   [8]  13 00 07 01 D8 FE 15 00
  can0  0A5   [8]  E7 02 78 01 72 02 FA 03
  can0  0A4   [8]  01 00 00 00 00 00 00 00
  can0  0A3   [8]  98 0D 60 1E E9 A5 77 1E
  can0  0B0   [8]  6B 00 A6 00 74 01 4E 09
  can0  0B0   [8]  6D 00 AB 00 75 01 46 09
  can0  0B0   [8]  6E 00 5D 00 77 01 4A 09
  can0  0AD   [8]  38 07 00 00 00 00 D8 00
  can0  0AC   [8]  6E 00 52 00 7F B3 00 00
  can0  0AB   [8]  00 00 00 00 00 00 00 00
  can0  0AA   [8]  06 00 08 06 00 01 C1 01
  can0  0A8   [8]  22 00 6E 4D 29 00 A2 00
  can0  0A7   [8]  4E 09 DB 00 C6 FF D3 00
  can0  0B0   [8]  6E 00 36 00 74 01 50 09
  can0  0A6   [8]  90 00 6E FF E4 FF 16 00
  can0  0A5   [8]  6D 0D 77 01 70 02 F8 03
  can0  0A4   [8]  01 00 00 00 00 00 00 00
  can0  0A3   [8]  99 0D 70 1E E9 A5 87 1E
  can0  0B0   [8]  6E 00 33 00 76 01 4C 09
  can0  0B0   [8]  6F 00 33 00 74 01 54 09
  can0  0B0   [8]  6F 00 4C 00 74 01 4C 09
  can0  0AD   [8]  FF 07 00 00 00 00 DC 00
  can0  0AC   [8]  6F 00 47 00 83 B3 00 00
  can0  0AB   [8]  00 00 00 00 00 00 00 00
  can0  0AA   [8]  06 00 08 06 00 01 C1 01
  can0  0A8   [8]  22 00 6E 4D 07 00 8B 00
  can0  0A7   [8]  50 09 F3 00 E0 FF F1 00
  can0  0B0   [8]  6F 00 84 00 74 01 4A 09
  can0  0A6   [8]  CD FF A9 FF 58 00 13 00
  can0  0A5   [8]  D8 09 74 01 6C 02 F6 03
  can0  0A4   [8]  01 00 00 00 00 00 00 00
  can0  0A3   [8]  99 0D 60 1E E8 A1 77 1E
  can0  0B0   [8]  6F 00 A1 00 73 01 4A 09
  can0  0AE   [8]  10 00 4C 20 18 11 22 20
  can0  0A9   [8]  97 00 FA 00 F6 01 A1 04
  can0  0A2   [8]  F0 D8 F0 D8 CA FD 00 00
  can0  0A1   [8]  24 01 22 08 3D 08 F0 D8
  can0  0A0   [8]  27 01 28 01 2B 01 23 01
  can0  0B0   [8]  6F 00 A4 00 74 01 46 09
  can0  0B0   [8]  6F 00 9B 00 75 01 4C 09
  can0  0AD   [8]  C4 06 00 00 00 00 D7 00
  can0  0AC   [8]  6F 00 90 00 87 B3 00 00
  can0  0AB   [8]  00 00 00 00 00 00 00 00
  can0  0AA   [8]  06 00 08 06 00 01 C1 01
  can0  0A8   [8]  22 00 6E 4D 26 00 1B 01
  can0  0A7   [8]  4C 09 CE 00 E4 FF CC 00
  can0  0B0   [8]  6F 00 83 00 73 01 4E 09
  can0  0A6   [8]  02 FF F2 00 F0 FF 1A 00
  can0  0A5   [8]  41 06 75 01 6E 02 F7 03
  can0  0A4   [8]  01 00 00 00 00 00 00 00
  can0  0A3   [8]  99 0D 60 1E E8 A1 77 1E
  can0  0B0   [8]  6C 00 48 00 74 01 54 09
  can0  0B0   [8]  6A 00 2D 00 74 01 4A 09
  can0  0B0   [8]  69 00 63 00 74 01 4E 09
  can0  0AD   [8]  46 08 00 00 00 00 CF 00
  can0  0AC   [8]  69 00 75 00 8B B3 00 00
  can0  0AB   [8]  00 00 00 00 00 00 00 00
  can0  0AA   [8]  06 00 08 06 00 01 C1 01
  can0  0A8   [8]  22 00 6E 4D B6 FF E6 00
  can0  0A7   [8]  46 09 FB 00 D1 FF F7 00
  can0  0B0   [8]  69 00 58 00 75 01 4E 09
  can0  0A6   [8]  13 00 C7 00 0D FF 12 00
  can0  0A5   [8]  A2 02 74 01 6B 02 F8 03
  can0  0A4   [8]  01 00 00 00 00 00 00 00
  can0  0A3   [8]  97 0D 60 1E E8 A1 77 1E
  can0  0B0   [8]  68 00 7D 00 76 01 50 09
  can0  0B0   [8]  67 00 90 00 75 01 4C 09
  can0  0B0   [8]  67 00 88 00 76 01 4A 09
  can0  0AD   [8]  E4 06 00 00 00 00 C7 00
  can0  0AC   [8]  67 00 7D 00 8F B3 00 00
  can0  0AB   [8]  00 00 00 00 00 00 00 00
  can0  0AA   [8]  06 00 08 06 00 01 C1 01
  can0  0A8   [8]  22 00 6E 4D 21 00 F6 00
  can0  0A7   [8]  4E 09 D1 00 CB FF CA 00
  can0  0B0   [8]  66 00 5E 00 74 01 4E 09
  can0  0A6   [8]  D4 00 26 FF ED FF 17 00
  can0  0A5   [8]  26 0D 76 01 6E 02 F7 03
  can0  0A4   [8]  01 00 00 00 00 00 00 00
  can0  0A3   [8]  97 0D 60 1E E8 A1 77 1E
  can0  0B0   [8]  66 00 33 00 74 01 50 09
  can0  0B0   [8]  66 00 24 00 76 01 4A 09
  can0  0B0   [8]  66 00 34 00 77 01 4E 09
  can0  0AD   [8]  FB 07 00 00 00 00 CC 00
  can0  0AC   [8]  66 00 2F 00 93 B3 00 00
  can0  0AB   [8]  00 00 00 00 00 00 00 00
  can0  0AA   [8]  06 00 08 06 00 01 C1 01
  can0  0A8   [8]  22 00 6E 4D FC FF 5D 00
  can0  0A7   [8]  4E 09 F3 00 D5 FF EF 00
  can0  0B0   [8]  66 00 5B 00 75 01 52 09
  can0  0A6   [8]  DD FF C6 FF 5A 00 11 00
  can0  0A5   [8]  98 09 77 01 70 02 F8 03
  can0  0A4   [8]  01 00 00 00 00 00 00 00
  can0  0A3   [8]  97 0D 70 1E E7 9D 87 1E
  can0  0B0   [8]  67 00 8C 00 74 01 4C 09
  can0  0B0   [8]  67 00 A3 00 72 01 4A 09
  can0  0B0   [8]  67 00 AA 00 72 01 4A 09
  can0  0AD   [8]  DE 06 00 00 00 00 C6 00
  can0  0AC   [8]  67 00 A3 00 97 B3 00 00
  can0  0AB   [8]  00 00 00 00 00 00 00 00
  can0  0AA   [8]  06 00 08 06 00 01 C1 01
  can0  0A8   [8]  22 00 6E 4D 20 00 41 01
  can0  0A7   [8]  52 09 D0 00 DD FF CE 00
  can0  0B0   [8]  67 00 9C 00 74 01 4A 09
  can0  0A6   [8]  F3 FE 21 01 F9 FF 18 00
  can0  0A5   [8]  F2 05 72 01 68 02 F8 03
  can0  0A4   [8]  01 00 00 00 00 00 00 00
  can0  0A3   [8]  97 0D 70 1E E9 A1 77 1E
  can0  0B0   [8]  64 00 4D 00 73 01 50 09
  can0  0B0   [8]  62 00 37 00 70 01 50 09
  can0  0B0   [8]  61 00 28 00 70 01 4E 09
  can0  0AD   [8]  B7 07 00 00 00 00 C2 00
  can0  0AC   [8]  61 00 27 00 9B B3 00 00
  can0  0AB   [8]  00 00 00 00 00 00 00 00
  can0  0AA   [8]  06 00 08 06 00 01 C1 01
  can0  0A8   [8]  22 00 6E 4D F8 FF 4C 00
  can0  0A7   [8]  54 09 EA 00 D4 FF E6 00
  can0  0B0   [8]  60 00 23 00 70 01 50 09
  can0  0A6   [8]  20 00 2B 00 BC FF 10 00
  can0  0A5   [8]  46 02 70 01 65 02 F7 03
  can0  0A4   [8]  01 00 00 00 00 00 00 00
  can0  0A3   [8]  96 0D 70 1E E7 9D 77 1E
  can0  0B0   [8]  60 00 4D 00 70 01 52 09
  can0  0B0   [8]  62 00 6C 00 6F 01 46 09
  can0  0B0   [8]  63 00 97 00 6C 01 46 09
  can0  0AD   [8]  81 07 00 00 00 00 C0 00
  can0  0AC   [8]  63 00 9E 00 9F B3 00 00
  can0  0AB   [8]  00 00 00 00 00 00 00 00
  can0  0AA   [8]  06 00 08 06 00 01 C1 01
  can0  0A8   [8]  22 00 6E 4D D7 FF 36 01
  can0  0A7   [8]  46 09 E4 00 E6 FF E3 00
  can0  0B0   [8]  64 00 9E 00 6C 01 4C 09
  can0  0A6   [8]  0B 01 ED FE 13 00 15 00
  can0  0A5   [8]  8C 0C 6C 01 5E 02 F7 03
  can0  0A4   [8]  01 00 00 00 00 00 00 00
  can0  0A3   [8]  97 0D 80 1E E7 9D 97 1E
  can0  0B0   [8]  65 00 A6 00 69 01 4C 09
  can0  0B0   [8]  65 00 9F 00 68 01 57 09
  can0  0B0   [8]  67 00 77 00 6C 01 4C 09
  can0  0AD   [8]  9D 06 00 00 00 00 C9 00
  can0  0AC   [8]  67 00 64 00 A3 B3 00 00
  can0  0AB   [8]  00 00 00 00 00 00 00 00
  can0  0AA   [8]  06 00 08 06 00 01 C1 01
  can0  0A8   [8]  22 00 6E 4D 23 00 C5 00
  can0  0A7   [8]  4A 09 C9 00 D9 FF C5 00
  can0  0B0   [8]  68 00 4E 00 69 01 4E 09
  can0  0A6   [8]  57 FF F8 FF B4 00 17 00
  can0  0A5   [8]  AE 08 6C 01 5E 02 F6 03
  can0  0A4   [8]  01 00 00 00 00 00 00 00
  can0  0A3   [8]  98 0D 60 1E E7 9D 77 1E
  can0  0B0   [8]  69 00 35 00 69 01 4C 09
  can0  0B0   [8]  69 00 25 00 6A 01 52 09
  can0  0B0   [8]  69 00 30 00 69 01 4A 09
  can0  0AE   [8]  10 00 4C 20 18 11 22 20
  can0  0AD   [8]  1F 08 00 00 00 00 D2 00
  can0  0AC   [8]  69 00 3A 00 A7 B3 00 00
  can0  0AB   [8]  00 00 00 00 00 00 00 00
  can0  0AA   [8]  06 00 08 06 00 01 C1 01
  can0  0B0   [8]  6A 00 2F 00 6A 01 50 09
  can0  0A9   [8]  97 00 FB 00 F7 01 9C 04
  can0  0A8   [8]  22 00 6E 4D EA FF 63 00
  can0  0A7   [8]  4A 09 F4 00 DA FF F1 00
  can0  0A6   [8]  B6 FF 61 00 D0 FF 10 00
  can0  0A5   [8]  D5 04 69 01 59 02 F6 03
  can0  0A4   [8]  01 00 00 00 00 00 00 00
  can0  0B0   [8]  6F 00 5A 00 69 01 4A 09
  can0  0A3   [8]  98 0D 70 1E E8 A1 87 1E
  can0  0A2   [8]  F0 D8 F0 D8 CA FD 00 00
  can0  0A1   [8]  24 01 22 08 3D 08 F0 D8
  can0  0A0   [8]  27 01 28 01 2B 01 21 01
  can0  0B0   [8]  72 00 89 00 69 01 47 09
  can0  0B0   [8]  74 00 B6 00 6A 01 46 09
  can0  0AD   [8]  57 07 00 00 00 00 E0 00
  can0  0AC   [8]  74 00 B9 00 AB B3 00 00
  can0  0AB   [8]  00 00 00 00 00 00 00 00
  can0  0AA   [8]  06 00 08 06 00 01 C1 01
  can0  0A8   [8]  22 00 6E 4D EE FF 6C 01
  can0  0A7   [8]  47 09 DF 00 DB FF DC 00
  can0  0B0   [8]  76 00 C4 00 6B 01 46 09
  can0  0A6   [8]  49 01 E1 FF BB FE 18 00
  can0  0A5   [8]  DF 00 6A 01 5B 02 F5 03
  can0  0A4   [8]  01 00 00 00 00 00 00 00
  can0  0A3   [8]  9B 09 70 1E E8 A1 87 1E
  can0  0B0   [8]  76 00 BD 00 6B 01 4A 09
  can0  0B0   [8]  76 00 B1 00 6A 01 4C 09
  can0  0B0   [8]  75 00 84 00 6C 01 47 09
  can0  0AD   [8]  A7 06 00 00 00 00 E4 00
  can0  0AC   [8]  75 00 7D 00 AF B3 00 00
  can0  0AB   [8]  00 00 00 00 00 00 00 00
  can0  0AA   [8]  06 00 08 06 00 01 C1 01
  can0  0A8   [8]  22 00 6E 4D 52 00 F6 00
  can0  0A7   [8]  4C 09 CA 00 CE FF C4 00
  can0  0B0   [8]  75 00 43 00 6D 01 4C 09
  can0  0A6   [8]  ED FF 2A FF A6 00 1A 00
  can0  0A5   [8]  1A 0B 6C 01 5D 02 F4 03
  can0  0A4   [8]  01 00 00 00 00 00 00 00
  can0  0A3   [8]  9A 0D 70 1E E8 A1 87 1E
  can0  0B0   [8]  75 00 35 00 6D 01 50 09
  can0  0B0   [8]  74 00 3B 00 6F 01 4E 09
  can0  0B0   [8]  6E 00 3B 00 6D 01 54 09
  can0  0AD   [8]  0E 08 00 00 00 00 DB 00
  can0  0AC   [8]  6E 00 48 00 B3 B3 00 00
  can0  0AB   [8]  00 00 00 00 00 00 00 00
  can0  0AA   [8]  06 00 08 06 00 01 C1 01
  can0  0A8   [8]  22 00 6E 4D E8 FF 8D 00
  can0  0A7   [8]  50 09 F5 00 EA FF F4 00
  can0  0B0   [8]  6B 00 40 00 6D 01 54 09
  can0  0A6   [8]  78 FF 1D 00 33 00 13 00
  can0  0A5   [8]  5A 07 6D 01 60 02 F3 03
  can0  0A4   [8]  01 00 00 00 00 00 00 00
  can0  0A3   [8]  97 0D 60 1E E8 A1 77 1E
  can0  0B0   [8]  68 00 8E 00 6F 01 46 09
  can0  0B0   [8]  67 00 9B 00 6D 01 4E 09
  can0  0B0   [8]  66 00 8C 00 6F 01 4C 09
  can0  0AD   [8]  8E 06 00 00 00 00 C5 00
  can0  0AC   [8]  66 00 86 00 B7 B3 00 00
  can0  0AB   [8]  00 00 00 00 00 00 00 00
  can0  0AA   [8]  06 00 08 06 00 01 C1 01
  can0  0A8   [8]  22 00 6E 4D FD FF 06 01
  can0  0A7   [8]  4C 09 C7 00 F0 FF C6 00
  can0  0B0   [8]  65 00 9A 00 6F 01 4A 09
  can0  0A6   [8]  F3 FF EA 00 FD FE 18 00
  can0  0A5   [8]  9A 03 6F 01 63 02 F2 03
  can0  0A4   [8]  01 00 00 00 00 00 00 00
  can0  0A3   [8]  97 0D 70 1E E8 A1 87 1E
  can0  0B0   [8]  66 00 94 00 6A 01 4E 09
  can0  0B0   [8]  67 00 78 00 6A 01 47 09
  can0  0B0   [8]  67 00 29 00 6B 01 4E 09
  can0  0AD   [8]  E3 07 00 00 00 00 CD 00
  can0  0AC   [8]  67 00 26 00 BB B3 00 00
  can0  0AB   [8]  00 00 00 00 00 00 00 00
  can0  0AA   [8]  06 00 08 06 00 01 C1 01
  can0  0A8   [8]  22 00 6E 4D 05 00 4B 00
  can0  0A7   [8]  46 09 F0 00 C1 FF E7 00
  can0  0B0   [8]  67 00 42 00 6A 01 4A 09
  can0  0A6   [8]  49 00 CE FF A3 FF 11 00
  can0  0A5   [8]  CD 0D 6B 01 5C 02 F1 03
  can0  0A4   [8]  01 00 00 00 00 00 00 00
  can0  0A3   [8]  97 0D 70 1E E7 A1 87 1E
  can0  0B0   [8]  67 00 4A 00 6A 01 57 09
  can0  0B0   [8]  68 00 38 00 6A 01 54 09
  can0  0B0   [8]  69 00 4A 00 6A 01 4E 09
  can0  0AD   [8]  F7 07 00 00 00 00 D0 00
  can0  0AC   [8]  69 00 4C 00 BF B3 00 00
  can0  0AB   [8]  00 00 00 00 00 00 00 00
  can0  0AA   [8]  06 00 08 06 00 01 C1 01
  can0  0A8   [8]  22 00 6E 4D 00 00 95 00
  can0  0A7   [8]  50 09 F2 00 DC FF EF 00
  can0  0B0   [8]  69 00 80 00 69 01 4C 09
  can0  0A6   [8]  D5 FF 99 FF 75 00 11 00
  can0  0A5   [8]  EB 09 6A 01 5B 02 F0 03
  can0  0A4   [8]  01 00 00 00 00 00 00 00
  can0  0A3   [8]  98 0D 70 1E E7 A1 77 1E
  can0  0B0   [8]  69 00 9E 00 6B 01 47 09
  can0  0B0   [8]  6A 00 9F 00 6A 01 4A 09
  can0  0B0   [8]  6D 00 9F 00 6C 01 4C 09
  can0  0AD   [8]  C2 06 00 00 00 00 D2 00
  can0  0AC   [8]  6D 00 99 00 C3 B3 00 00
  can0  0AB   [8]  00 00 00 00 00 00 00 00
  can0  0AA   [8]  06 00 08 06 00 01 C1 01
  can0  0A8   [8]  22 00 6E 4D 14 00 2D 01
  can0  0A7   [8]  4C 09 CD 00 DE FF CB 00
  can0  0B0   [8]  6F 00 97 00 6D 01 5B 09
  can0  0A6   [8]  F7 FE 01 01 F3 FF 18 00
  can0  0A5   [8]  11 06 6C 01 5E 02 F2 03
  can0  0A4   [8]  01 00 00 00 00 00 00 00
  can0  0A3   [8]  9A 0D 80 1E E7 9D 87 1E
  can0  0B0   [8]  70 00 6A 00 6D 01 4A 09
  can0  0B0   [8]  71 00 37 00 6D 01 4E 09
  can0  0B0   [8]  72 00 35 00 6C 01 4A 09
  can0  0AD   [8]  2E 08 00 00 00 00 E3 00
  can0  0AC   [8]  72 00 37 00 C7 B3 00 00
  can0  0AB   [8]  00 00 00 00 00 00 00 00
  can0  0AA   [8]  06 00 08 06 00 01 C1 01
  can0  0A8   [8]  22 00 6E 4D ED FF 6D 00
  can0  0A7   [8]  52 09 F9 00 C6 FF F2 00
  can0  0B0   [8]  72 00 3B 00 6D 01 50 09
  can0  0A6   [8]  29 00 44 00 76 FF 13 00
  can0  0A5   [8]  47 02 6C 01 5E 02 F3 03
  can0  0A4   [8]  01 00 00 00 00 00 00 00
  can0  0A3   [8]  9A 0D 70 1E E8 A1 87 1E
  can0  0B0   [8]  74 00 5E 00 72 01 47 09
  can0  0AE   [8]  10 00 4C 20 18 11 22 20
  can0  0A9   [8]  97 00 FB 00 F6 01 9B 04
  can0  0A2   [8]  F0 D8 F0 D8 CA FD 00 00
  can0  0A1   [8]  24 01 22 08 3D 08 F0 D8
  can0  0A0   [8]  27 01 28 01 2B 01 22 01
  can0  0B0   [8]  75 00 7C 00 73 01 4A 09
  can0  0B0   [8]  76 00 BB 00 73 01 47 09
  can0  0AD   [8]  3B 07 00 00 00 00 E3 00
  can0  0AC   [8]  76 00 BB 00 CB B3 00 00
  can0  0AB   [8]  00 00 00 00 00 00 00 00
  can0  0AA   [8]  06 00 08 06 00 01 C1 01
  can0  0A8   [8]  22 00 6E 4D E0 FF 70 01
  can0  0A7   [8]  46 09 DC 00 D9 FF D8 00
  can0  0B0   [8]  76 00 B8 00 74 01 3B 09
  can0  0A6   [8]  43 01 C4 FE F7 FF 1A 00
  can0  0A5   [8]  C0 0C 74 01 6B 02 F3 03
  can0  0A4   [8]  01 00 00 00 00 00 00 00
  can0  0A3   [8]  9B 0D 70 1E E8 A1 87 1E
  can0  0B0   [8]  77 00 84 00 74 01 46 09
  can0  0B0   [8]  75 00 6E 00 75 01 4A 09
  can0  0B0   [8]  74 00 38 00 78 01 4A 09
  can0  0AD   [8]  8C 07 00 00 00 00 E7 00
  can0  0AC   [8]  74 00 31 00 CF B3 00 00
  can0  0AB   [8]  00 00 00 00 00 00 00 00
  can0  0AA   [8]  06 00 08 06 00 01 C1 01
  can0  0A8   [8]  22 00 6E 4D 04 00 61 00
  can0  0A7   [8]  4C 09 E5 00 D2 FF E1 00
  can0  0B0   [8]  74 00 2A 00 78 01 47 09
  can0  0A6   [8]  C6 FF DA FF 58 00 16 00
  can0  0A5   [8]  38 09 78 01 71 02 F3 03
  can0  0A4   [8]  01 00 00 00 00 00 00 00
  can0  0A3   [8]  9A 0D 70 1E E8 A1 97 1E
  can0  0B0   [8]  73 00 6C 00 78 01 50 09
  can0  0B0   [8]  73 00 8E 00 79 01 4E 09
  can0  0B0   [8]  75 00 BF 00 79 01 4A 09
  can0  0AD   [8]  59 07 00 00 00 00 E2 00
  can0  0AC   [8]  75 00 C2 00 D3 B3 00 00
  can0  0AB   [8]  00 00 00 00 00 00 00 00
  can0  0AA   [8]  06 00 08 06 00 01 C1 01
  can0  0A8   [8]  22 00 6E 4D 01 00 7C 01
  can0  0A7   [8]  46 09 DF 00 D9 FF DC 00
  can0  0B0   [8]  77 00 BA 00 7D 01 4C 09
  can0  0A6   [8]  BE FE 51 01 ED FF 1B 00
  can0  0A5   [8]  C7 05 79 01 74 02 F3 03
  can0  0A4   [8]  01 00 00 00 00 00 00 00
  can0  0A3   [8]  9B 0D 70 1E E8 A1 87 1E
  can0  0B0   [8]  78 00 69 00 7D 01 4C 09
  can0  0B0   [8]  78 00 45 00 7C 01 4E 09
  can0  0B0   [8]  79 00 2E 00 7F 01 4A 09
  can0  0AD   [8]  40 08 00 00 00 00 F0 00
  can0  0AC   [8]  79 00 41 00 D7 B3 00 00
  can0  0AB   [8]  00 00 00 00 00 00 00 00
  can0  0AA   [8]  06 00 08 06 00 01 C1 01
  can0  0A8   [8]  22 00 6E 4D EC FF 80 00
  can0  0A7   [8]  50 09 FB 00 CC FF F5 00
  can0  0B0   [8]  79 00 53 00 7F 01 47 09
  can0  0A6   [8]  26 00 57 00 A1 FF 15 00
  can0  0A5   [8]  7E 02 7F 01 7E 02 F4 03
  can0  0A4   [8]  01 00 00 00 00 00 00 00
  can0  0A3   [8]  9B 0D 70 1E E8 A1 87 1E
  can0  0B0   [8]  7A 00 AD 00 83 01 4C 09
  can0  0B0   [8]  7A 00 C6 00 84 01 3F 09
  can0  0B0   [8]  7A 00 92 00 83 01 4E 09
  can0  0AD   [8]  F6 06 00 00 00 00 EF 00
  can0  0AC   [8]  7A 00 72 00 DB B3 00 00
  can0  0AB   [8]  00 00 00 00 00 00 00 00
  can0  0AA   [8]  06 00 08 06 00 01 C1 01
  can0  0A8   [8]  22 00 6E 4D 26 00 01 01
  can0  0A7   [8]  4E 09 D1 00 D1 FF CC 00
  can0  0B0   [8]  7A 00 45 00 88 01 4C 09
  can0  0A6   [8]  EA 00 2A FF 00 00 1D 00
  can0  0A5   [8]  67 0D 84 01 86 02 F5 03
  can0  0A4   [8]  01 00 00 00 00 00 00 00
  can0  0A3   [8]  9B 0D 70 1E E8 A5 87 1E
  can0  0B0   [8]  7A 00 39 00 8C 01 52 09
  can0  0B0   [8]  75 00 7A 00 8E 01 54 09
  can0  0B0   [8]  72 00 AA 00 8E 01 47 09
  can0  0AD   [8]  9C 07 00 00 00 00 DC 00
  can0  0AC   [8]  72 00 A9 00 DF B3 00 00
  can0  0AB   [8]  00 00 00 00 00 00 00 00
  can0  0AA   [8]  06 00 08 06 00 01 C1 01
  can0  0A8   [8]  22 00 6E 4D 15 00 62 01
  can0  0A7   [8]  4C 09 EA 00 CF FF E5 00
  can0  0B0   [8]  70 00 87 00 90 01 46 09
  can0  0A6   [8]  EB FF D8 FE 0F 01 1A 00
  can0  0A5   [8]  8D 0A 8E 01 96 02 F5 03
  can0  0A4   [8]  01 00 00 00 00 00 00 00
  can0  0A3   [8]  98 0D 70 1E E8 A5 77 1E
  can0  0B0   [8]  6E 00 35 00 91 01 4C 09
  can0  0B0   [8]  6D 00 3A 00 93 01 4C 09
  can0  0B0   [8]  72 00 74 00 94 01 4A 09
  can0  0AD   [8]  5F 08 00 00 00 00 DD 00
  can0  0AC   [8]  72 00 95 00 E3 B3 00 00
  can0  0AB   [8]  00 00 00 00 00 00 00 00
  can0  0AA   [8]  06 00 08 06 00 01 C1 01
  can0  0A8   [8]  22 00 6E 4D DB FF 04 01
  can0  0A7   [8]  4C 09 02 01 DD FF FF 00
  can0  0B0   [8]  74 00 A4 00 96 01 4E 09
  can0  0A6   [8]  1A FF 03 00 C3 00 16 00
  can0  0A5   [8]  DA 07 94 01 A0 02 F7 03
  can0  0A4   [8]  01 00 00 00 00 00 00 00
  can0  0A3   [8]  9B 0D 70 1E E9 A5 87 1E
  can0  0B0   [8]  76 00 65 00 97 01 4A 09
  can0  0B0   [8]  77 00 3D 00 99 01 4A 09
  can0  0B0   [8]  78 00 68 00 9B 01 4C 09
  can0  0AD   [8]  C5 08 00 00 00 00 EB 00
  can0  0AC   [8]  78 00 84 00 E7 B3 00 00
  can0  0AB   [8]  00 00 00 00 00 00 00 00
  can0  0AA   [8]  06 00 08 06 00 01 C1 01
  can0  0A8   [8]  22 00 6E 4D DD FF E8 00
  can0  0A7   [8]  4C 09 0D 01 DF FF 0B 01
  can0  0B0   [8]  78 00 B5 00 99 01 4A 09
  can0  0A6   [8]  3F FF D5 00 C8 FF 17 00
  can0  0A5   [8]  56 05 9B 01 AC 02 F7 03
  can0  0A4   [8]  01 00 00 00 00 00 00 00
  can0  0A3   [8]  9B 0D 70 1E E7 9D 77 1E
  can0  0B0   [8]  76 00 98 00 9C 01 50 09
  can0  0B0   [8]  74 00 44 00 9F 01 4C 09
  can0  0B0   [8]  73 00 84 00 A1 01 4E 09
  can0  0AE   [8]  10 00 4C 20 18 11 22 20
  can0  0AD   [8]  7F 08 00 00 00 00 E0 00
  can0  0AC   [8]  73 00 A3 00 EB B3 00 00
  can0  0AB   [8]  00 00 00 00 00 00 00 00
  can0  0AA   [8]  06 00 08 06 00 01 C1 01
  can0  0A9   [8]  97 00 FC 00 F7 01 9E 04
  can0  0B0   [8]  72 00 B3 00 A4 01 44 09
  can0  0A8   [8]  22 00 6E 4D B7 FF 40 01
  can0  0A7   [8]  4E 09 07 01 D7 FF 04 01
  can0  0A6   [8]  FB FF F2 00 C0 FE 18 00
  can0  0A5   [8]  F5 02 A1 01 B7 02 F8 03
  can0  0A4   [8]  01 00 00 00 00 00 00 00
  can0  0B0   [8]  72 00 A0 00 A1 01 4A 09
  can0  0A3   [8]  99 0D 70 1E E8 A1 77 1E
  can0  0A2   [8]  F0 D8 F0 D8 CA FD 00 00
  can0  0A1   [8]  24 01 22 08 3D 08 F0 D8
  can0  0A0   [8]  27 01 28 01 2B 01 22 01
  can0  0B0   [8]  70 00 4F 00 A3 01 4A 09
  can0  0B0   [8]  6E 00 8D 00 A3 01 4C 09
  can0  0AD   [8]  39 08 00 00 00 00 D6 00
  can0  0AC   [8]  6E 00 9B 00 EF B3 00 00
  can0  0AB   [8]  00 00 00 00 00 00 00 00
  can0  0AA   [8]  06 00 08 06 00 01 C1 01
  can0  0A8   [8]  22 00 6E 4D ED FF 2F 01
  can0  0A7   [8]  46 09 FA 00 C3 FF F3 00
  can0  0B0   [8]  6E 00 B0 00 A5 01 50 09
  can0  0A6   [8]  05 01 CE FF D8 FE 19 00
  can0  0A5   [8]  B1 00 A3 01 BA 02 F8 03
  can0  0A4   [8]  01 00 00 00 00 00 00 00
  can0  0A3   [8]  98 0D 70 1E E8 A1 87 1E
  can0  0B0   [8]  6D 00 74 00 A7 01 4E 09
  can0  0B0   [8]  6D 00 33 00 A7 01 4E 09
  can0  0B0   [8]  68 00 7F 00 A9 01 4E 09
  can0  0AD   [8]  2D 08 00 00 00 00 CB 00
  can0  0AC   [8]  68 00 83 00 F3 B3 00 00
  can0  0AB   [8]  00 00 00 00 00 00 00 00
  can0  0AA   [8]  06 00 08 06 00 01 C1 01
  can0  0A8   [8]  22 00 6E 4D F0 FF 01 01
  can0  0A7   [8]  4A 09 F9 00 BF FF F0 00
  can0  0B0   [8]  66 00 62 00 A9 01 4A 09
  can0  0A6   [8]  DC 00 1E FF CC FF 18 00
  can0  0A5   [8]  A0 0C A9 01 C3 02 F8 03
  can0  0A4   [8]  01 00 00 00 00 00 00 00
  can0  0A3   [8]  96 0D 70 1E E8 A1 87 1E
  can0  0B0   [8]  64 00 31 00 A7 01 52 09
  can0  0B0   [8]  63 00 33 00 A7 01 4C 09
  can0  0B0   [8]  62 00 80 00 A2 01 4C 09
  can0  0AD   [8]  12 08 00 00 00 00 BF 00
  can0  0AC   [8]  62 00 84 00 F7 B3 00 00
  can0  0AB   [8]  00 00 00 00 00 00 00 00
  can0  0AA   [8]  06 00 08 06 00 01 C1 01
  can0  0A8   [8]  22 00 6E 4D 0A 00 04 01
  can0  0A7   [8]  4C 09 F5 00 CA FF EF 00
  can0  0B0   [8]  62 00 76 00 9E 01 47 09
  can0  0A6   [8]  EB FF 2A FF C9 00 15 00
  can0  0A5   [8]  75 0A A2 01 B8 02 FA 03
  can0  0A4   [8]  01 00 00 00 00 00 00 00
  can0  0A3   [8]  96 0D 80 1E E8 A1 97 1E
  can0  0B0   [8]  63 00 24 00 94 01 52 09
  can0  0B0   [8]  63 00 27 00 8D 01 4C 09
  can0  0B0   [8]  63 00 40 00 86 01 4C 09
  can0  0AD   [8]  2A 08 00 00 00 00 C4 00
  can0  0AC   [8]  63 00 55 00 FB B3 00 00
  can0  0AB   [8]  00 00 00 00 00 00 00 00
  can0  0AA   [8]  06 00 08 06 00 01 C1 01
  can0  0A8   [8]  22 00 6E 4D E9 FF 91 00
  can0  0A7   [8]  4E 09 F8 00 DC FF F6 00
  can0  0B0   [8]  64 00 54 00 7F 01 4A 09
  can0  0A6   [8]  75 FF 17 00 68 00 10 00
  can0  0A5   [8]  7E 07 86 01 89 02 FD 03
  can0  0A4   [8]  01 00 00 00 00 00 00 00
  can0  0A3   [8]  97 0D 80 1E E8 A1 97 1E
  can0  0B0   [8]  64 00 99 00 75 01 4A 09
  can0  0B0   [8]  63 00 AC 00 6C 01 4C 09
  can0  0B0   [8]  63 00 A3 00 61 01 52 09
  can0  0AD   [8]  81 06 00 00 00 00 BE 00
  can0  0AC   [8]  63 00 A7 00 FF B3 00 00
  can0  0AB   [8]  00 00 00 00 00 00 00 00
  can0  0AA   [8]  06 00 08 06 00 01 C1 01
  can0  0A8   [8]  22 00 6E 4D FB FF 48 01
  can0  0A7   [8]  52 09 C5 00 EF FF C5 00
  can0  0B0   [8]  63 00 9C 00 5C 01 4E 09
  can0  0A6   [8]  0D 00 15 01 F5 FE 16 00
  can0  0A5   [8]  62 03 61 01 4C 02 FD 03
  can0  0A4   [8]  01 00 00 00 00 00 00 00
  can0  0A3   [8]  96 0D 60 1E E8 A1 77 1E
  can0  0B0   [8]  63 00 9C 00 5A 01 50 09
  can0  0B0   [8]  63 00 91 00 56 01 4C 09
  can0  0B0   [8]  66 00 97 00 53 01 4C 09
  can0  0AD   [8]  4E 06 00 00 00 00 C5 00
  can0  0AC   [8]  66 00 90 00 03 B4 00 00
  can0  0AB   [8]  00 00 00 00 00 00 00 00
  can0  0AA   [8]  06 00 08 06 00 01 C1 01
  can0  0A8   [8]  22 00 6E 4D FE FF 1A 01
  can0  0A7   [8]  46 09 BF 00 F0 FF BF 00
  can0  0B0   [8]  67 00 A8 00 51 01 4C 09
  can0  0A6   [8]  F7 00 0E FF 06 00 16 00
  can0  0A5   [8]  EC 0C 53 01 34 02 FB 03
  can0  0A4   [8]  01 00 00 00 00 00 00 00
  can0  0A3   [8]  98 0D 70 1E E7 A1 87 1E
  can0  0B0   [8]  68 00 94 00 50 01 46 09
  can0  0B0   [8]  69 00 9D 00 51 01 46 09
  can0  0B0   [8]  6A 00 96 00 55 01 47 09
  can0  0AD   [8]  45 06 00 00 00 00 CD 00
  can0  0AC   [8]  6A 00 8A 00 07 B4 00 00
  can0  0AB   [8]  00 00 00 00 00 00 00 00
  can0  0AA   [8]  06 00 08 06 00 01 C1 01
  can0  0A8   [8]  22 00 6E 4D 0D 00 0E 01
  can0  0A7   [8]  46 09 BE 00 E7 FF BC 00
  can0  0B0   [8]  6A 00 91 00 57 01 50 09
  can0  0A6   [8]  1A FF F7 FF E5 00 18 00
  can0  0A5   [8]  64 08 55 01 39 02 F9 03
  can0  0A4   [8]  01 00 00 00 00 00 00 00
  can0  0A3   [8]  98 0D 70 1E E8 A1 77 1E
  can0  0B0   [8]  67 00 7B 00 57 01 59 09
  can0  0B0   [8]  64 00 7D 00 59 01 46 09
  can0  0B0   [8]  63 00 56 00 5A 01 5D 09
  can0  0AD   [8]  7C 06 00 00 00 00 C2 00
  can0  0AC   [8]  63 00 54 00 0B B4 00 00
  can0  0AB   [8]  00 00 00 00 00 00 00 00
  can0  0AA   [8]  06 00 08 06 00 01 C1 01
  can0  0A8   [8]  22 00 6E 4D 32 00 A5 00
  can0  0A7   [8]  52 09 C5 00 DE FF C2 00
  can0  0B0   [8]  62 00 50 00 5B 01 57 09
  can0  0A6   [8]  09 00 90 00 80 FF 15 00
  can0  0A5   [8]  0F 04 5A 01 41 02 F7 03
  can0  0A4   [8]  01 00 00 00 00 00 00 00
  can0  0A3   [8]  96 09 70 1E E8 A1 77 1E
  can0  0B0   [8]  62 00 37 00 5E 01 4E 09
  can0  0AE   [8]  10 00 4C 20 18 11 22 20
  can0  0A9   [8]  97 00 FB 00 F6 01 A0 04
  can0  0A2   [8]  F0 D8 F0 D8 CA FD 00 00
  can0  0A1   [8]  25 01 22 08 3D 08 F0 D8
  can0  0A0   [8]  27 01 28 01 2B 01 22 01
  can0  0B0   [8]  69 00 32 00 5F 01 47 09
  can0  0B0   [8]  6D 00 2A 00 5F 01 4E 09
  can0  0AD   [8]  9C 07 00 00 00 00 DA 00
  can0  0AC   [8]  6D 00 2F 00 0F B4 00 00
  can0  0AB   [8]  00 00 00 00 00 00 00 00
  can0  0AA   [8]  06 00 08 06 00 01 C1 01
  can0  0A8   [8]  22 00 6E 4D 00 00 5D 00
  can0  0A7   [8]  50 09 E7 00 D8 FF E4 00
  can0  0B0   [8]  70 00 33 00 62 01 4A 09
  can0  0A6   [8]  5D 00 CE FF E2 FF 11 00
  can0  0A5   [8]  F6 0D 60 01 4A 02 F6 03
  can0  0A4   [8]  01 00 00 00 00 00 00 00
  can0  0A3   [8]  9A 0D 80 1E E8 A1 97 1E
  can0  0B0   [8]  71 00 36 00 61 01 52 09
  can0  0B0   [8]  72 00 43 00 63 01 4E 09
  can0  0B0   [8]  73 00 75 00 65 01 4C 09
  can0  0AD   [8]  20 08 00 00 00 00 E3 00
  can0  0AC   [8]  73 00 74 00 13 B4 00 00
  can0  0AB   [8]  00 00 00 00 00 00 00 00
  can0  0AA   [8]  06 00 08 06 00 01 C1 01
  can0  0A8   [8]  22 00 6E 4D E2 FF E4 00
  can0  0A7   [8]  52 09 F7 00 DE FF F5 00
  can0  0B0   [8]  74 00 92 00 66 01 4C 09
  can0  0A6   [8]  DF FF 4B FF D5 00 13 00
  can0  0A5   [8]  EE 09 65 01 53 02 F5 03
  can0  0A4   [8]  01 00 00 00 00 00 00 00
  can0  0A3   [8]  9A 0D 70 1E E7 9D 87 1E
  can0  0B0   [8]  74 00 BE 00 67 01 4C 09
  can0  0B0   [8]  74 00 BD 00 6A 01 47 09
  can0  0B0   [8]  74 00 B3 00 6B 01 4A 09
  can0  0AD   [8]  8A 06 00 00 00 00 E0 00
  can0  0AC   [8]  74 00 AD 00 17 B4 00 00
  can0  0AB   [8]  00 00 00 00 00 00 00 00
  can0  0AA   [8]  06 00 08 06 00 01 C1 01
  can0  0A8   [8]  22 00 6E 4D 01 00 54 01
  can0  0A7   [8]  4E 09 C7 00 E8 FF C5 00
  can0  0B0   [8]  74 00 A5 00 6B 01 4E 09
  can0  0A6   [8]  CB FE 17 01 E2 FF 1B 00
  can0  0A5   [8]  0F 06 6B 01 5C 02 F4 03
  can0  0A4   [8]  01 00 00 00 00 00 00 00
  can0  0A3   [8]  9A 0D 70 1E E7 9D 77 1E
  can0  0B0   [8]  6C 00 6C 00 6D 01 4C 09
  can0  0B0   [8]  67 00 2F 00 6F 01 4A 09
  can0  0B0   [8]  64 00 22 00 70 01 47 09
  can0  0AD   [8]  41 08 00 00 00 00 C7 00
  can0  0AC   [8]  64 00 30 00 1B B4 00 00
  can0  0AB   [8]  00 00 00 00 00 00 00 00
  can0  0AA   [8]  06 00 08 06 00 01 C1 01
  can0  0A8   [8]  22 00 6E 4D D5 FF 5D 00
  can0  0A7   [8]  4C 09 FB 00 D0 FF F6 00
  can0  0B0   [8]  62 00 37 00 71 01 52 09
  can0  0A6   [8]  09 00 54 00 76 FF 10 00
  can0  0A5   [8]  57 02 71 01 66 02 F4 03
  can0  0A4   [8]  01 00 00 00 00 00 00 00
  can0  0A3   [8]  96 0D 70 1E E7 9D 77 1E
  can0  0B0   [8]  61 00 49 00 70 01 54 09
  can0  0B0   [8]  64 00 4E 00 70 01 47 09
  can0  0B0   [8]  66 00 92 00 72 01 4C 09
  can0  0AD   [8]  43 07 00 00 00 00 C5 00
  can0  0AC   [8]  66 00 94 00 1F B4 00 00
  can0  0AB   [8]  00 00 00 00 00 00 00 00
  can0  0AA   [8]  06 00 08 06 00 01 C1 01
  can0  0A8   [8]  22 00 6E 4D E3 FF 23 01
  can0  0A7   [8]  4A 09 DD 00 D5 FF D8 00
  can0  0B0   [8]  67 00 90 00 71 01 50 09
  can0  0A6   [8]  01 01 07 FF E0 FF 15 00
  can0  0A5   [8]  BC 0C 72 01 68 02 F1 03
  can0  0A4   [8]  01 00 00 00 00 00 00 00
  can0  0A3   [8]  98 0D 70 1E E7 9D 87 1E
  can0  0B0   [8]  67 00 68 00 73 01 4C 09
  can0  0B0   [8]  68 00 7A 00 74 01 50 09
  can0  0B0   [8]  64 00 66 00 71 01 50 09
  can0  0AD   [8]  C2 06 00 00 00 00 C5 00
  can0  0AC   [8]  64 00 4C 00 23 B4 00 00
  can0  0AB   [8]  00 00 00 00 00 00 00 00
  can0  0AA   [8]  06 00 08 06 00 01 C1 01
  can0  0A8   [8]  22 00 6E 4D 29 00 96 00
  can0  0A7   [8]  4A 09 CE 00 E6 FF CC 00
  can0  0B0   [8]  61 00 37 00 73 01 4E 09
  can0  0A6   [8]  83 FF ED FF 6B 00 16 00
  can0  0A5   [8]  14 09 71 01 66 02 F0 03
  can0  0A4   [8]  01 00 00 00 00 00 00 00
  can0  0A3   [8]  95 0D 70 1E E7 9D 87 1E
  can0  0B0   [8]  60 00 6B 00 73 01 4A 09
  can0  0B0   [8]  5F 00 80 00 72 01 4A 09
  can0  0B0   [8]  5E 00 6B 00 74 01 4A 09
  can0  0AD   [8]  D2 07 00 00 00 00 B7 00
  can0  0AC   [8]  5E 00 73 00 27 B4 00 00
  can0  0AB   [8]  00 00 00 00 00 00 00 00
  can0  0AA   [8]  06 00 08 06 00 01 C1 01
  can0  0A8   [8]  22 00 6E 4D CB FF E2 00
  can0  0A7   [8]  46 09 EE 00 E6 FF EC 00
  can0  0B0   [8]  5E 00 7B 00 73 01 4C 09
  can0  0A6   [8]  2F FF C1 00 C1 FF 12 00
  can0  0A5   [8]  7E 05 74 01 6C 02 F1 03
  can0  0A4   [8]  01 00 00 00 00 00 00 00
  can0  0A3   [8]  95 0D 80 1E E8 A1 97 1E
  can0  0B0   [8]  5E 00 84 00 73 01 47 09
  can0  0B0   [8]  5F 00 67 00 75 01 4C 09
  can0  0B0   [8]  5F 00 1F 00 76 01 4C 09
  can0  0AD   [8]  BE 07 00 00 00 00 BE 00
  can0  0AC   [8]  5F 00 1E 00 2B B4 00 00
  can0  0AB   [8]  00 00 00 00 00 00 00 00
  can0  0AA   [8]  06 00 08 06 00 01 C1 01
  can0  0A8   [8]  22 00 6E 4D 00 00 3C 00
  can0  0A7   [8]  4C 09 EB 00 C1 FF E3 00
  can0  0B0   [8]  5F 00 2E 00 74 01 4E 09
  can0  0A6   [8]  26 00 13 00 93 FF 11 00
  can0  0A5   [8]  EC 01 76 01 6F 02 F2 03
  can0  0A4   [8]  01 00 00 00 00 00 00 00
  can0  0A3   [8]  96 0D 80 1E E7 9D 97 1E
  can0  0B0   [8]  5F 00 2B 00 77 01 52 09
  can0  0B0   [8]  60 00 33 00 78 01 52 09
  can0  0B0   [8]  61 00 72 00 77 01 4E 09
  can0  0AE   [8]  10 00 4C 20 18 11 22 20
  can0  0AD   [8]  C3 07 00 00 00 00 BC 00
  can0  0AC   [8]  61 00 7E 00 2F B4 00 00
  can0  0AB   [8]  00 00 00 00 00 00 00 00
  can0  0AA   [8]  06 00 08 06 00 01 C1 01
  can0  0A9   [8]  97 00 FB 00 F6 01 99 04
  can0  0B0   [8]  61 00 99 00 78 01 46 09
  can0  0A8   [8]  22 00 6E 4D D4 FF F6 00
  can0  0A7   [8]  4E 09 EC 00 CB FF E6 00
  can0  0A6   [8]  D6 00 24 FF F7 FF 13 00
  can0  0A5   [8]  73 0C 77 01 71 02 F2 03
  can0  0A4   [8]  01 00 00 00 00 00 00 00
  can0  0B0   [8]  61 00 86 00 78 01 5B 09
  can0  0A3   [8]  96 0D 70 1E E7 9D 77 1E
  can0  0A2   [8]  F0 D8 F0 D8 CA FD 00 00
  can0  0A1   [8]  24 01 22 08 3D 08 F0 D8
  can0  0A0   [8]  27 01 29 01 2A 01 22 01
  can0  0B0   [8]  61 00 84 00 78 01 54 09
  can0  0B0   [8]  63 00 56 00 7A 01 4C 09
  can0  0AD   [8]  ED 06 00 00 00 00 C4 00
  can0  0AC   [8]  63 00 45 00 33 B4 00 00
  can0  0AB   [8]  00 00 00 00 00 00 00 00
  can0  0AA   [8]  06 00 08 06 00 01 C1 01
  can0  0A8   [8]  22 00 6E 4D 1B 00 88 00
  can0  0A7   [8]  4E 09 D2 00 D5 FF CE 00
  can0  0B0   [8]  64 00 2C 00 7A 01 4A 09
  can0  0A6   [8]  93 FF EB FF 71 00 15 00
  can0  0A5   [8]  00 09 7A 01 75 02 F3 03
  can0  0A4   [8]  01 00 00 00 00 00 00 00
  can0  0A3   [8]  97 0D 70 1E E8 A1 77 1E
  can0  0B0   [8]  65 00 3A 00 7A 01 54 09
  can0  0B0   [8]  66 00 65 00 79 01 52 09
  can0  0B0   [8]  66 00 95 00 79 01 50 09
  can0  0AD   [8]  C9 07 00 00 00 00 C5 00
  can0  0AC   [8]  66 00 9C 00 37 B4 00 00
  can0  0AB   [8]  00 00 00 00 00 00 00 00
  can0  0AA   [8]  06 00 08 06 00 01 C1 01
  can0  0A8   [8]  22 00 6E 4D FB FF 32 01
  can0  0A7   [8]  4E 09 ED 00 DD FF EA 00
  can0  0B0   [8]  66 00 B3 00 7B 01 4C 09
  can0  0A6   [8]  0A FF 19 01 EB FF 15 00
  can0  0A5   [8]  8F 05 79 01 74 02 F4 03
  can0  0A4   [8]  01 00 00 00 00 00 00 00
  can0  0A3   [8]  97 0D 70 1E E7 9D 87 1E
  can0  0B0   [8]  6A 00 91 00 7C 01 4E 09
  can0  0B0   [8]  6C 00 4D 00 7A 01 4C 09
  can0  0B0   [8]  6E 00 21 00 7B 01 4E 09
  can0  0AD   [8]  AA 07 00 00 00 00 DA 00
  can0  0AC   [8]  6E 00 2C 00 3B B4 00 00
  can0  0AB   [8]  00 00 00 00 00 00 00 00
  can0  0AA   [8]  06 00 08 06 00 01 C1 01
  can0  0A8   [8]  22 00 6E 4D FE FF 56 00
  can0  0A7   [8]  4A 09 E9 00 CD FF E4 00
  can0  0B0   [8]  6F 00 21 00 7C 01 4E 09
  can0  0A6   [8]  2E 00 26 00 B3 FF 15 00
  can0  0A5   [8]  2B 02 7B 01 77 02 F4 03
  can0  0A4   [8]  01 00 00 00 00 00 00 00
  can0  0A3   [8]  99 0D 70 1E E8 A1 87 1E
  can0  0B0   [8]  6F 00 64 00 7D 01 4C 09
  can0  0B0   [8]  6B 00 94 00 7E 01 47 09
  can0  0B0   [8]  68 00 AD 00 7C 01 4C 09
  can0  0AD   [8]  26 07 00 00 00 00 C9 00
  can0  0AC   [8]  68 00 AA 00 3F B4 00 00
  can0  0AB   [8]  00 00 00 00 00 00 00 00
  can0  0AA   [8]  06 00 08 06 00 01 C1 01
  can0  0A8   [8]  22 00 6E 4D F6 FF 4E 01
  can0  0A7   [8]  4A 09 D9 00 E0 FF D7 00
  can0  0B0   [8]  67 00 A8 00 7D 01 50 09
  can0  0A6   [8]  26 01 E4 FE FF FF 19 00
  can0  0A5   [8]  E4 0C 7C 01 7A 02 F4 03
  can0  0A4   [8]  01 00 00 00 00 00 00 00
  can0  0A3   [8]  97 0D 70 1E E8 A1 87 1E
  can0  0B0   [8]  66 00 59 00 7C 01 4C 09
  can0  0B0   [8]  65 00 3A 00 7C 01 50 09
  can0  0B0   [8]  63 00 33 00 7D 01 4A 09
  can0  0AD   [8]  2A 08 00 00 00 00 C4 00
  can0  0AC   [8]  63 00 41 00 43 B4 00 00
  can0  0AB   [8]  00 00 00 00 00 00 00 00
  can0  0AA   [8]  06 00 08 06 00 01 C1 01
  can0  0A8   [8]  22 00 6E 4D F0 FF 7F 00
  can0  0A7   [8]  46 09 F8 00 D0 FF F3 00
  can0  0B0   [8]  61 00 4C 00 7C 01 47 09
  can0  0A6   [8]  D7 FF AB FF 70 00 11 00
  can0  0A5   [8]  8E 09 7D 01 7B 02 F5 03
  can0  0A4   [8]  01 00 00 00 00 00 00 00
  can0  0A3   [8]  96 0D 70 1E E7 9D 87 1E
  can0  0B0   [8]  60 00 85 00 7D 01 4A 09
  can0  0B0   [8]  60 00 A1 00 7D 01 4C 09
  can0  0B0   [8]  5F 00 8A 00 7D 01 47 09
  can0  0AD   [8]  E9 06 00 00 00 00 B9 00
  can0  0AC   [8]  5F 00 7F 00 47 B4 00 00
  can0  0AB   [8]  00 00 00 00 00 00 00 00
  can0  0AA   [8]  06 00 08 06 00 01 C1 01
  can0  0A8   [8]  22 00 6E 4D 23 00 F9 00
  can0  0A7   [8]  4C 09 D2 00 D1 FF CD 00
  can0  0B0   [8]  5F 00 5E 00 80 01 54 09
  can0  0A6   [8]  23 FF D8 00 F7 FF 17 00
  can0  0A5   [8]  36 06 7D 01 7B 02 F6 03
  can0  0A4   [8]  01 00 00 00 00 00 00 00
  can0  0A3   [8]  96 0D 80 1E E7 9D 97 1E
  can0  0B0   [8]  62 00 2F 00 7D 01 4E 09
  can0  0B0   [8]  64 00 31 00 7E 01 46 09
  can0  0B0   [8]  65 00 7D 00 7F 01 50 09
  can0  0AD   [8]  0D 08 00 00 00 00 C5 00
  can0  0AC   [8]  65 00 87 00 4B B4 00 00
  can0  0AB   [8]  00 00 00 00 00 00 00 00
  can0  0AA   [8]  06 00 08 06 00 01 C1 01
  can0  0A8   [8]  22 00 6E 4D C7 FF 09 01
  can0  0A7   [8]  4E 09 F5 00 D7 FF F1 00
  can0  0B0   [8]  66 00 8E 00 7E 01 50 09
  can0  0A6   [8]  0B 00 E4 00 FD FE 13 00
  can0  0A5   [8]  F1 02 7F 01 7F 02 F7 03
  can0  0A4   [8]  01 00 00 00 00 00 00 00
  can0  0A3   [8]  97 0D 80 1E E7 9D 97 1E
  can0  0B0   [8]  67 00 AC 00 7D 01 52 09
  can0  0B0   [8]  68 00 94 00 7E 01 47 09
  can0  0B0   [8]  69 00 38 00 80 01 4A 09
  can0  0AD   [8]  EA 07 00 00 00 00 D2 00
  can0  0AC   [8]  69 00 2D 00 4F B4 00 00
  can0  0AB   [8]  00 00 00 00 00 00 00 00
  can0  0AA   [8]  06 00 08 06 00 01 C1 01
  can0  0A8   [8]  22 00 6E 4D FF FF 5E 00
  can0  0B0   [8]  6A 00 2B 00 7F 01 4A 09
  can0  0A7   [8]  4A 09 ED 00 C5 FF E5 00
  can0  0A6   [8]  5D 00 C8 FF CC FF 14 00
  can0  0A5   [8]  C7 0D 80 01 7F 02 F7 03
  can0  0A4   [8]  01 00 00 00 00 00 00 00
  can0  0A3   [8]  98 0D 70 1E E7 9D 87 1E
  can0  0B0   [8]  6A 00 42 00 81 01 4E 09
  can0  0AE   [8]  10 00 4C 20 18 11 22 20
  can0  0A9   [8]  97 00 FA 00 F6 01 98 04
  can0  0A2   [8]  F0 D8 F0 D8 CA FD 00 00
  can0  0A1   [8]  24 01 22 08 3D 08 F0 D8
  can0  0A0   [8]  27 01 29 01 2A 01 23 01
  can0  0B0   [8]  6A 00 55 00 7F 01 4A 09
  can0  0B0   [8]  6E 00 98 00 7E 01 4A 09
  can0  0AD   [8]  E9 07 00 00 00 00 D5 00
  can0  0AC   [8]  6E 00 93 00 53 B4 00 00
  can0  0AB   [8]  00 00 00 00 00 00 00 00
  can0  0AA   [8]  06 00 08 06 00 01 C1 01
  can0  0A8   [8]  22 00 6E 4D 0D 00 21 01
  can0  0A7   [8]  4C 09 F0 00 DA FF ED 00
  can0  0B0   [8]  70 00 95 00 7F 01 50 09
  can0  0A6   [8]  E1 FF 16 FF E6 00 16 00
  can0  0A5   [8]  6B 0A 7E 01 7D 02 F5 03
  can0  0A4   [8]  01 00 00 00 00 00 00 00
  can0  0A3   [8]  9A 0D 70 1E E8 A1 87 1E
  can0  0B0   [8]  71 00 55 00 7F 01 4C 09
  can0  0B0   [8]  72 00 3B 00 82 01 4E 09
  can0  0B0   [8]  72 00 33 00 82 01 50 09
  can0  0AD   [8]  FD 07 00 00 00 00 E4 00
  can0  0AC   [8]  72 00 34 00 57 B4 00 00
  can0  0AB   [8]  00 00 00 00 00 00 00 00
  can0  0AA   [8]  06 00 08 06 00 01 C1 01
  can0  0A8   [8]  22 00 6E 4D DD FF 66 00
  can0  0A7   [8]  50 09 F3 00 E5 FF F1 00
  can0  0B0   [8]  73 00 3E 00 81 01 54 09
  can0  0A6   [8]  9D FF 0B 00 18 00 15 00
  can0  0A5   [8]  39 07 82 01 82 02 F5 03
  can0  0A4   [8]  01 00 00 00 00 00 00 00
  can0  0A3   [8]  9A 0D 70 1E E8 A1 87 1E
  can0  0B0   [8]  74 00 9C 00 83 01 4C 09
  can0  0B0   [8]  76 00 A1 00 83 01 4C 09
  can0  0B0   [8]  76 00 6D 00 84 01 4E 09
  can0  0AD   [8]  F9 06 00 00 00 00 E8 00
  can0  0AC   [8]  76 00 65 00 5B B4 00 00
  can0  0AB   [8]  00 00 00 00 00 00 00 00
  can0  0AA   [8]  06 00 08 06 00 01 C1 01
  can0  0A8   [8]  22 00 6E 4D 1E 00 C5 00
  can0  0A7   [8]  50 09 D4 00 E0 FF D1 00
  can0  0B0   [8]  77 00 65 00 87 01 57 09
  can0  0A6   [8]  EF FF B5 00 36 FF 1D 00
  can0  0A5   [8]  0E 04 84 01 86 02 F6 03
  can0  0A4   [8]  01 00 00 00 00 00 00 00
  can0  0A3   [8]  9B 0D 70 1E E9 A5 87 1E
  can0  0B0   [8]  77 00 2E 00 87 01 50 09
  can0  0B0   [8]  72 00 68 00 88 01 4E 09
  can0  0B0   [8]  6F 00 A2 00 8B 01 46 09
  can0  0AD   [8]  72 07 00 00 00 00 D7 00
  can0  0AC   [8]  6F 00 A4 00 5F B4 00 00
  can0  0AB   [8]  00 00 00 00 00 00 00 00
  can0  0AA   [8]  06 00 08 06 00 01 C1 01
  can0  0A8   [8]  22 00 6E 4D FB FF 42 01
  can0  0A7   [8]  4A 09 E2 00 C4 FF DA 00
  can0  0B0   [8]  6D 00 92 00 8B 01 50 09
  can0  0A6   [8]  1A 01 F8 FF DC FE 1B 00
  can0  0A5   [8]  16 01 8B 01 92 02 F6 03
  can0  0A4   [8]  01 00 00 00 00 00 00 00
  can0  0A3   [8]  98 0D 70 1E E9 A5 77 1E
  can0  0B0   [8]  6C 00 68 00 8C 01 57 09
  can0  0B0   [8]  6C 00 3C 00 8E 01 4E 09
  can0  0B0   [8]  69 00 66 00 8F 01 4A 09
  can0  0AD   [8]  3B 08 00 00 00 00 CD 00
  can0  0AC   [8]  69 00 71 00 63 B4 00 00
  can0  0AB   [8]  00 00 00 00 00 00 00 00
  can0  0AA   [8]  06 00 08 06 00 01 C1 01
  can0  0A8   [8]  22 00 6E 4D E2 FF DD 00
  can0  0A7   [8]  47 09 FA 00 C0 FF F2 00
  can0  0B0   [8]  67 00 98 00 8F 01 47 09
  can0  0A6   [8]  B1 00 31 FF F7 FF 14 00
  can0  0A5   [8]  4D 0C 8F 01 99 02 F7 03
  can0  0A4   [8]  01 00 00 00 00 00 00 00
  can0  0A3   [8]  97 0D 70 1E E7 9D 87 1E
  can0  0B0   [8]  66 00 86 00 90 01 50 09
  can0  0B0   [8]  65 00 5D 00 91 01 52 09
  can0  0B0   [8]  65 00 27 00 92 01 4C 09
  can0  0AD   [8]  0B 08 00 00 00 00 C9 00
  can0  0AC   [8]  65 00 27 00 67 B4 00 00
  can0  0AB   [8]  00 00 00 00 00 00 00 00
  can0  0AA   [8]  06 00 08 06 00 01 C1 01
  can0  0A8   [8]  22 00 6E 4D 00 00 4D 00
  can0  0A7   [8]  4C 09 F5 00 CD FF EF 00
  can0  0B0   [8]  64 00 5C 00 8F 01 44 09
  can0  0A6   [8]  DD FF D5 FF 4E 00 13 00
  can0  0A5   [8]  89 09 92 01 9D 02 F9 03
  can0  0A4   [8]  01 00 00 00 00 00 00 00
  can0  0A3   [8]  97 0D 80 1E E9 A5 87 1E
  can0  0B0   [8]  68 00 96 00 8C 01 4C 09
  can0  0B0   [8]  69 00 9B 00 86 01 46 09
  can0  0B0   [8]  6B 00 73 00 83 01 4C 09
  can0  0AD   [8]  E5 06 00 00 00 00 D0 00
  can0  0AC   [8]  6B 00 66 00 6B B4 00 00
  can0  0AB   [8]  00 00 00 00 00 00 00 00
  can0  0AA   [8]  06 00 08 06 00 01 C1 01
  can0  0A8   [8]  22 00 6E 4D 2D 00 C7 00
  can0  0A7   [8]  4C 09 D1 00 D2 FF CD 00
  can0  0B0   [8]  6B 00 41 00 81 01 52 09
  can0  0A6   [8]  4C FF AF 00 FB FF 18 00
  can0  0A5   [8]  66 06 83 01 85 02 FB 03
  can0  0A4   [8]  01 00 00 00 00 00 00 00
  can0  0A3   [8]  98 0D 80 1E E8 A1 87 1E
  can0  0B0   [8]  6C 00 22 00 7C 01 4C 09
  can0  0B0   [8]  6C 00 33 00 75 01 52 09
  can0  0B0   [8]  6C 00 58 00 72 01 4A 09
  can0  0AD   [8]  23 08 00 00 00 00 D5 00
  can0  0AC   [8]  6C 00 68 00 6F B4 00 00
  can0  0AB   [8]  00 00 00 00 00 00 00 00
  can0  0AA   [8]  06 00 08 06 00 01 C1 01
  can0  0A8   [8]  22 00 6E 4D D8 FF CC 00
  can0  0A7   [8]  47 09 F7 00 DD FF F5 00
  can0  0B0   [8]  6C 00 7A 00 6F 01 57 09
  can0  0A6   [8]  18 00 A6 00 44 FF 12 00
  can0  0A5   [8]  CE 02 72 01 68 02 FB 03
  can0  0A4   [8]  01 00 00 00 00 00 00 00
  can0  0A3   [8]  98 0D 60 1E E8 A1 87 1E
  can0  0B0   [8]  6C 00 B0 00 6D 01 4A 09
  can0  0B0   [8]  6C 00 B2 00 6A 01 50 09
  can0  0B0   [8]  6E 00 B3 00 66 01 44 09
  can0  0AE   [8]  10 00 4C 20 18 11 22 20
  can0  0AD   [8]  A7 06 00 00 00 00 D3 00
  can0  0AC   [8]  6E 00 AF 00 73 B4 00 00
  can0  0AB   [8]  00 00 00 00 00 00 00 00
  can0  0AA   [8]  06 00 08 06 00 01 C1 01
  can0  0A9   [8]  97 00 FA 00 F8 01 9C 04
  can0  0B0   [8]  6F 00 B1 00 65 01 46 09
  can0  0A8   [8]  22 00 6E 4D 0D 00 57 01
  can0  0A7   [8]  4A 09 CA 00 E9 FF C9 00
  can0  0A6   [8]  22 01 D0 FE F9 FF 19 00
  can0  0A5   [8]  E5 0C 66 01 54 02 FA 03
  can0  0A4   [8]  01 00 00 00 00 00 00 00
  can0  0B0   [8]  70 00 97 00 63 01 4C 09
  can0  0A3   [8]  99 0D 60 1E E7 9D 77 1E
  can0  0A2   [8]  F0 D8 F0 D8 CA FD 00 00
  can0  0A1   [8]  24 01 22 08 3D 08 F0 D8
  can0  0A0   [8]  27 01 28 01 2A 01 22 01
  can0  0B0   [8]  70 00 84 00 63 01 4C 09
  can0  0B0   [8]  70 00 59 00 65 01 4E 09
  can0  0AD   [8]  BA 06 00 00 00 00 DD 00
  can0  0AC   [8]  70 00 4E 00 77 B4 00 00
  can0  0AB   [8]  00 00 00 00 00 00 00 00
  can0  0AA   [8]  06 00 08 06 00 01 C1 01
  can0  0A8   [8]  22 00 6E 4D 23 00 9A 00
  can0  0A7   [8]  4C 09 CC 00 DA FF C9 00
  can0  0B0   [8]  70 00 49 00 64 01 4E 09
  can0  0A6   [8]  7B FF F7 FF 87 00 17 00
  can0  0A5   [8]  D7 08 65 01 52 02 F9 03
  can0  0A4   [8]  01 00 00 00 00 00 00 00
  can0  0A3   [8]  99 0D 70 1E E9 A5 87 1E
  can0  0B0   [8]  71 00 2C 00 65 01 52 09
  can0  0B0   [8]  71 00 27 00 67 01 50 09
  can0  0B0   [8]  72 00 32 00 67 01 54 09
  can0  0AD   [8]  23 08 00 00 00 00 E3 00
  can0  0AC   [8]  72 00 3F 00 7B B4 00 00
  can0  0AB   [8]  00 00 00 00 00 00 00 00
  can0  0AA   [8]  06 00 08 06 00 01 C1 01
  can0  0A8   [8]  22 00 6E 4D 02 00 7B 00
  can0  0A7   [8]  50 09 F7 00 DA FF F4 00
  can0  0B0   [8]  72 00 47 00 67 01 50 09
  can0  0A6   [8]  BC FF 7B 00 D0 FF 11 00
  can0  0A5   [8]  DD 04 67 01 56 02 F8 03
  can0  0A4   [8]  01 00 00 00 00 00 00 00
  can0  0A3   [8]  9A 0D 70 1E E8 A1 87 1E
  can0  0B0   [8]  72 00 70 00 67 01 50 09
  can0  0B0   [8]  6D 00 8F 00 67 01 47 09
  can0  0B0   [8]  6B 00 AE 00 69 01 4A 09
  can0  0AD   [8]  25 07 00 00 00 00 CD 00
  can0  0AC   [8]  6B 00 B8 00 7F B4 00 00
  can0  0AB   [8]  00 00 00 00 00 00 00 00
  can0  0AA   [8]  06 00 08 06 00 01 C1 01
  can0  0A8   [8]  22 00 6E 4D ED FF 69 01
  can0  0A7   [8]  47 09 D9 00 DD FF D6 00
  can0  0B0   [8]  69 00 AA 00 6B 01 47 09
  can0  0A6   [8]  42 01 EF FF D1 FE 17 00
  can0  0A5   [8]  F3 00 69 01 5A 02 F7 03
  can0  0A4   [8]  01 00 00 00 00 00 00 00
  can0  0A3   [8]  97 0D 70 1E E8 A1 87 1E
  can0  0B0   [8]  68 00 A1 00 6C 01 4C 09
  can0  0B0   [8]  67 00 90 00 6B 01 4E 09
  can0  0B0   [8]  67 00 6C 00 6B 01 4E 09
  can0  0AD   [8]  E0 06 00 00 00 00 CA 00
  can0  0AC   [8]  67 00 5B 00 83 B4 00 00
  can0  0AB   [8]  00 00 00 00 00 00 00 00
  can0  0AA   [8]  06 00 08 06 00 01 C1 01
  can0  0A8   [8]  22 00 6E 4D 35 00 B3 00
  can0  0A7   [8]  47 09 CF 00 D0 FF CA 00
  can0  0B0   [8]  66 00 31 00 6A 01 57 09
  can0  0A6   [8]  FE FF 5F FF 85 00 15 00
  can0  0A5   [8]  2D 0B 6B 01 5C 02 F5 03
  can0  0A4   [8]  01 00 00 00 00 00 00 00
  can0  0A3   [8]  97 0D 60 1E E7 9D 77 1E
  can0  0B0   [8]  66 00 34 00 6B 01 4E 09
  can0  0B0   [8]  66 00 3D 00 6C 01 4C 09
  can0  0B0   [8]  66 00 39 00 6A 01 52 09
  can0  0AD   [8]  EC 07 00 00 00 00 CA 00
  can0  0AC   [8]  66 00 3B 00 87 B4 00 00
  can0  0AB   [8]  00 00 00 00 00 00 00 00
  can0  0AA   [8]  06 00 08 06 00 01 C1 01
  can0  0A8   [8]  22 00 6E 4D F3 FF 75 00
  can0  0A7   [8]  44 09 F1 00 EC FF F0 00
  can0  0B0   [8]  66 00 3C 00 69 01 41 09
  can0  0A6   [8]  8D FF 20 00 27 00 10 00
  can0  0A5   [8]  51 07 6A 01 5B 02 F3 03
  can0  0A4   [8]  01 00 00 00 00 00 00 00
  can0  0A3   [8]  97 09 60 1E E7 9D 77 1E
  can0  0B0   [8]  6B 00 86 00 6A 01 4C 09
  can0  0B0   [8]  6E 00 AB 00 69 01 46 09
  can0  0B0   [8]  6F 00 B3 00 6B 01 47 09
  can0  0AD   [8]  B3 06 00 00 00 00 D7 00
  can0  0AC   [8]  6F 00 AE 00 8B B4 00 00
  can0  0AB   [8]  00 00 00 00 00 00 00 00
  can0  0AA   [8]  06 00 08 06 00 01 C1 01
  can0  0A8   [8]  22 00 6E 4D EB FF 55 01
  can0  0A7   [8]  47 09 CC 00 F2 FF CB 00
  can0  0B0   [8]  71 00 B0 00 6C 01 4A 09
  can0  0A6   [8]  F6 FF 2D 01 B3 FE 1B 00
  can0  0A5   [8]  70 03 6C 01 5D 02 F3 03
  can0  0A4   [8]  01 00 00 00 00 00 00 00
  can0  0A3   [8]  9A 0D 60 1E E8 A1 77 1E
  can0  0B0   [8]  71 00 AE 00 68 01 47 09
  can0  0B0   [8]  70 00 82 00 6A 01 4A 09
  can0  0B0   [8]  70 00 3B 00 6B 01 4A 09
  can0  0AD   [8]  AD 07 00 00 00 00 DF 00
  can0  0AC   [8]  70 00 2F 00 8F B4 00 00
  can0  0AB   [8]  00 00 00 00 00 00 00 00
  can0  0AA   [8]  06 00 08 06 00 01 C1 01
  can0  0A8   [8]  22 00 6E 4D 12 00 69 00
  can0  0A7   [8]  4A 09 E5 00 C1 FF DC 00
  can0  0B0   [8]  70 00 2D 00 6A 01 50 09
  can0  0A6   [8]  63 00 AC FF D2 FF 15 00
  can0  0A5   [8]  A1 0D 6B 01 5C 02 F1 03
  can0  0A4   [8]  01 00 00 00 00 00 00 00
  can0  0A3   [8]  99 0D 70 1E E8 A1 77 1E
  can0  0B0   [8]  6F 00 40 00 6C 01 4C 09
  can0  0B0   [8]  6F 00 36 00 6D 01 4E 09
  can0  0B0   [8]  6E 00 43 00 6D 01 4E 09
  can0  0AD   [8]  09 08 00 00 00 00 D8 00
  can0  0AC   [8]  6E 00 5F 00 93 B4 00 00
  can0  0AB   [8]  00 00 00 00 00 00 00 00
  can0  0AA   [8]  06 00 08 06 00 01 C1 01
  can0  0A8   [8]  22 00 6E 4D 03 00 BA 00
  can0  0A7   [8]  4E 09 F5 00 DB FF F2 00
  can0  0B0   [8]  6D 00 89 00 70 01 4A 09
  can0  0A6   [8]  CF FF 9B FF 68 00 12 00
  can0  0A5   [8]  D7 09 6D 01 60 02 F0 03
  can0  0A4   [8]  01 00 00 00 00 00 00 00
  can0  0A3   [8]  98 0D 70 1E E7 9D 87 1E
  can0  0B0   [8]  6C 00 B1 00 72 01 4A 09
  can0  0AE   [8]  10 00 4C 20 18 11 22 20
  can0  0A9   [8]  97 00 FA 00 F7 01 99 04
  can0  0A2   [8]  F0 D8 F0 D8 CA FD 00 00
  can0  0A1   [8]  24 01 22 08 3D 08 F0 D8
  can0  0A0   [8]  28 01 28 01 2B 01 22 01
  can0  0B0   [8]  6C 00 9A 00 71 01 50 09
  can0  0B0   [8]  6B 00 8E 00 72 01 4C 09
  can0  0AD   [8]  AE 06 00 00 00 00 D0 00
  can0  0AC   [8]  6B 00 85 00 97 B4 00 00
  can0  0AB   [8]  00 00 00 00 00 00 00 00
  can0  0AA   [8]  06 00 08 06 00 01 C1 01
  can0  0A8   [8]  22 00 6E 4D 20 00 06 01
  can0  0A7   [8]  4C 09 CB 00 DE FF C8 00
  can0  0B0   [8]  6B 00 85 00 72 01 52 09
  can0  0A6   [8]  08 FF EE 00 F1 FF 19 00
  can0  0A5   [8]  32 06 72 01 68 02 F2 03
  can0  0A4   [8]  01 00 00 00 00 00 00 00
  can0  0A3   [8]  98 0D 60 1E E6 9D 77 1E
  can0  0B0   [8]  6B 00 41 00 74 01 52 09
  can0  0B0   [8]  6B 00 2B 00 75 01 4A 09
  can0  0B0   [8]  6A 00 67 00 75 01 47 09
  can0  0AD   [8]  43 08 00 00 00 00 D2 00
  can0  0AC   [8]  6A 00 6F 00 9B B4 00 00
  can0  0AB   [8]  00 00 00 00 00 00 00 00
  can0  0AA   [8]  06 00 08 06 00 01 C1 01
  can0  0A8   [8]  22 00 6E 4D C1 FF DA 00
  can0  0A7   [8]  50 09 FB 00 D0 FF F7 00
  can0  0B0   [8]  6A 00 65 00 76 01 4C 09
  can0  0A6   [8]  18 00 A7 00 2E FF 12 00
  can0  0A5   [8]  A3 02 75 01 6D 02 F3 03
  can0  0A4   [8]  01 00 00 00 00 00 00 00
  can0  0A3   [8]  98 0D 60 1E E7 9D 77 1E
  can0  0B0   [8]  6A 00 9D 00 79 01 4E 09
  can0  0B0   [8]  6C 00 AB 00 7A 01 4A 09
  can0  0B0   [8]  6C 00 78 00 7A 01 4A 09
  can0  0AD   [8]  E0 06 00 00 00 00 D3 00
  can0  0AC   [8]  6C 00 6E 00 9F B4 00 00
  can0  0AB   [8]  00 00 00 00 00 00 00 00
  can0  0AA   [8]  06 00 08 06 00 01 C1 01
  can0  0A8   [8]  22 00 6E 4D 1B 00 D8 00
  can0  0A7   [8]  4A 09 D1 00 D1 FF CC 00
  can0  0B0   [8]  6D 00 54 00 79 01 50 09
  can0  0A6   [8]  C5 00 4B FF FB FF 18 00
  can0  0A5   [8]  46 0D 7A 01 75 02 F4 03
  can0  0A4   [8]  01 00 00 00 00 00 00 00
  can0  0A3   [8]  99 0D 70 1E E7 9D 87 1E
  can0  0B0   [8]  6D 00 2E 00 79 01 50 09
  can0  0B0   [8]  6D 00 2C 00 7A 01 52 09
  can0  0B0   [8]  69 00 70 00 7C 01 50 09
  can0  0AD   [8]  18 08 00 00 00 00 CD 00
  can0  0AC   [8]  69 00 88 00 A3 B4 00 00
  can0  0AB   [8]  00 00 00 00 00 00 00 00
  can0  0AA   [8]  06 00 08 06 00 01 C1 01
  can0  0A8   [8]  22 00 6E 4D E7 FF DE 00
  can0  0B0   [8]  67 00 8F 00 7C 01 4C 09
  can0  0A7   [8]  4E 09 FA 00 D7 FF F6 00
  can0  0A6   [8]  E5 FF 4D FF E6 00 13 00
  can0  0A5   [8]  05 0A 7D 01 7A 02 F4 03
  can0  0A4   [8]  01 00 00 00 00 00 00 00
  can0  0A3   [8]  96 0D 70 1E E7 9D 77 1E
  can0  0B0   [8]  65 00 A1 00 7B 01 47 09
  can0  0B0   [8]  64 00 91 00 7A 01 54 09
  can0  0B0   [8]  64 00 53 00 7B 01 4E 09
  can0  0AD   [8]  34 07 00 00 00 00 C5 00
  can0  0AC   [8]  64 00 44 00 A7 B4 00 00
  can0  0AB   [8]  00 00 00 00 00 00 00 00
  can0  0AA   [8]  06 00 08 06 00 01 C1 01
  can0  0A8   [8]  22 00 6E 4D 20 00 86 00
  can0  0A7   [8]  50 09 DB 00 C8 FF D3 00
  can0  0B0   [8]  63 00 22 00 7D 01 57 09
  can0  0A6   [8]  83 FF 72 00 19 00 15 00
  can0  0A5   [8]  8A 06 7B 01 77 02 F4 03
  can0  0A4   [8]  01 00 00 00 00 00 00 00
  can0  0A3   [8]  96 0D 60 1E E7 9D 77 1E
  can0  0B0   [8]  68 00 32 00 7B 01 4E 09
  can0  0B0   [8]  6A 00 4A 00 7B 01 4C 09
  can0  0B0   [8]  6C 00 95 00 7B 01 4E 09
  can0  0AD   [8]  ED 07 00 00 00 00 D1 00
  can0  0AC   [8]  6C 00 9C 00 AB B4 00 00
  can0  0AB   [8]  00 00 00 00 00 00 00 00
  can0  0AA   [8]  06 00 08 06 00 01 C1 01
  can0  0A8   [8]  22 00 6E 4D DA FF 32 01
  can0  0A7   [8]  4E 09 F1 00 D9 FF EE 00
  can0  0B0   [8]  6D 00 AF 00 7C 01 47 09
  can0  0A6   [8]  07 00 07 01 F5 FE 15 00
  can0  0A5   [8]  2D 03 7B 01 77 02 F5 03
  can0  0A4   [8]  01 00 00 00 00 00 00 00
  can0  0A3   [8]  99 0D 60 1E E9 A5 77 1E
  can0  0B0   [8]  6D 00 9B 00 81 01 4C 09
  can0  0B0   [8]  6D 00 59 00 81 01 50 09
  can0  0B0   [8]  6D 00 27 00 82 01 4E 09
  can0  0AD   [8]  F1 07 00 00 00 00 D9 00
  can0  0AC   [8]  6D 00 29 00 AF B4 00 00
  can0  0AB   [8]  00 00 00 00 00 00 00 00
  can0  0AA   [8]  06 00 08 06 00 01 C1 01
  can0  0A8   [8]  22 00 6E 4D F1 FF 52 00
  can0  0A7   [8]  52 09 F1 00 CE FF EC 00
  can0  0B0   [8]  6C 00 42 00 85 01 4C 09
  can0  0A6   [8]  52 00 E3 FF E0 FF 14 00
  can0  0A5   [8]  09 0E 82 01 83 02 F5 03
  can0  0A4   [8]  01 00 00 00 00 00 00 00
  can0  0A3   [8]  98 0D 80 1E E9 A5 97 1E
  can0  0B0   [8]  6C 00 85 00 84 01 50 09
  can0  0B0   [8]  6C 00 9E 00 87 01 4C 09
  can0  0B0   [8]  71 00 94 00 88 01 59 09
  can0  0AD   [8]  35 07 00 00 00 00 DC 00
  can0  0AC   [8]  71 00 82 00 B3 B4 00 00
  can0  0AB   [8]  00 00 00 00 00 00 00 00
  can0  0AA   [8]  06 00 08 06 00 01 C1 01
  can0  0A8   [8]  22 00 6E 4D 30 00 FE 00
  can0  0A7   [8]  4E 09 DB 00 C7 FF D3 00
  can0  0B0   [8]  74 00 50 00 8A 01 50 09
  can0  0A6   [8]  01 00 1E FF DF 00 1B 00
  can0  0A5   [8]  FD 0A 88 01 8C 02 F6 03
  can0  0A4   [8]  01 00 00 00 00 00 00 00
  can0  0A3   [8]  9B 0D 70 1E E7 9D 87 1E
  can0  0B0   [8]  76 00 40 00 8D 01 50 09
  can0  0B0   [8]  77 00 68 00 8F 01 4E 09
  can0  0B0   [8]  78 00 B5 00 90 01 4A 09
  can0  0AE   [8]  10 00 4C 20 18 11 22 20
  can0  0AD   [8]  CE 07 00 00 00 00 E7 00
  can0  0AC   [8]  78 00 C2 00 B7 B4 00 00
  can0  0AB   [8]  00 00 00 00 00 00 00 00
  can0  0AA   [8]  06 00 08 06 00 01 C1 01
  can0  0A9   [8]  97 00 FB 00 F7 01 9E 04
  can0  0B0   [8]  78 00 9A 00 92 01 41 09
  can0  0A8   [8]  22 00 6E 4D ED FF 7D 01
  can0  0A7   [8]  4E 09 ED 00 DE FF EB 00
  can0  0A6   [8]  BE FE EF FF 2D 01 1B 00
  can0  0A5   [8]  31 08 90 01 9B 02 F7 03
  can0  0A4   [8]  01 00 00 00 00 00 00 00
  can0  0B0   [8]  72 00 3E 00 95 01 46 09
  can0  0A3   [8]  9B 0D 80 1E E8 A1 87 1E
  can0  0A2   [8]  F0 D8 F0 D8 CA FD 00 00
  can0  0A1   [8]  24 01 22 08 3D 08 F0 D8
  can0  0A0   [8]  27 01 29 01 2B 01 22 01
  can0  0B0   [8]  6E 00 4B 00 96 01 52 09
  can0  0B0   [8]  6B 00 8E 00 98 01 47 09
  can0  0AD   [8]  4B 08 00 00 00 00 D0 00
  can0  0AC   [8]  6B 00 9A 00 BB B4 00 00
  can0  0AB   [8]  00 00 00 00 00 00 00 00
  can0  0AA   [8]  06 00 08 06 00 01 C1 01
  can0  0A8   [8]  22 00 6E 4D D5 FF 2E 01
  can0  0A7   [8]  4A 09 FC 00 EA FF FB 00
  can0  0B0   [8]  69 00 A1 00 93 01 4C 09
  can0  0A6   [8]  F3 FE 04 01 CA FF 17 00
  can0  0A5   [8]  9B 05 98 01 A7 02 F7 03
  can0  0A4   [8]  01 00 00 00 00 00 00 00
  can0  0A3   [8]  97 0D 80 1E E6 99 87 1E
  can0  0B0   [8]  68 00 78 00 91 01 50 09
  can0  0B0   [8]  6D 00 33 00 90 01 47 09
  can0  0B0   [8]  70 00 6D 00 8C 01 46 09
  can0  0AD   [8]  72 08 00 00 00 00 DB 00
  can0  0AC   [8]  70 00 73 00 BF B4 00 00
  can0  0AB   [8]  00 00 00 00 00 00 00 00
  can0  0AA   [8]  06 00 08 06 00 01 C1 01
  can0  0A8   [8]  22 00 6E 4D AC FF E2 00
  can0  0A7   [8]  4A 09 01 01 DB FF FE 00
  can0  0B0   [8]  71 00 6F 00 88 01 4E 09
  can0  0A6   [8]  03 00 CF 00 EC FE 15 00
  can0  0A5   [8]  B0 02 8C 01 93 02 F8 03
  can0  0A4   [8]  01 00 00 00 00 00 00 00
  can0  0A3   [8]  9A 0D 70 1E E6 99 87 1E
  can0  0B0   [8]  72 00 98 00 7F 01 50 09
  can0  0B0   [8]  73 00 A3 00 7A 01 47 09
  can0  0B0   [8]  75 00 7D 00 75 01 47 09
  can0  0AD   [8]  F5 06 00 00 00 00 E5 00
  can0  0AC   [8]  75 00 6F 00 C3 B4 00 00
  can0  0AB   [8]  00 00 00 00 00 00 00 00
  can0  0AA   [8]  06 00 08 06 00 01 C1 01
  can0  0A8   [8]  22 00 6E 4D 49 00 D9 00
  can0  0A7   [8]  46 09 D3 00 CA FF CD 00
  can0  0B0   [8]  76 00 4C 00 6E 01 4A 09
  can0  0A6   [8]  AF 00 28 FF D4 FF 1A 00
  can0  0A5   [8]  3B 0D 75 01 6D 02 F7 03
  can0  0A4   [8]  01 00 00 00 00 00 00 00
  can0  0A3   [8]  9B 0D 70 1E E7 9D 87 1E
  can0  0B0   [8]  77 00 4F 00 6A 01 4E 09
  can0  0B0   [8]  78 00 5B 00 66 01 4A 09
  can0  0B0   [8]  78 00 3F 00 62 01 50 09
  can0  0AD   [8]  F5 06 00 00 00 00 EE 00
  can0  0AC   [8]  78 00 3B 00 C7 B4 00 00
  can0  0AB   [8]  00 00 00 00 00 00 00 00
  can0  0AA   [8]  06 00 08 06 00 01 C1 01
  can0  0A8   [8]  22 00 6E 4D 1B 00 73 00
  can0  0A7   [8]  4C 09 D3 00 E3 FF D1 00
  can0  0B0   [8]  78 00 2C 00 5F 01 52 09
  can0  0A6   [8]  A4 FF EB FF 56 00 17 00
  can0  0A5   [8]  23 09 62 01 4E 02 F6 03
  can0  0A4   [8]  01 00 00 00 00 00 00 00
  can0  0A3   [8]  9B 0D 70 1E E7 9D 87 1E
  can0  0B0   [8]  79 00 38 00 60 01 4E 09
  can0  0B0   [8]  7A 00 41 00 5C 01 4A 09
  can0  0B0   [8]  7A 00 58 00 5D 01 4C 09
  can0  0AD   [8]  F1 07 00 00 00 00 F3 00
  can0  0AC   [8]  7A 00 57 00 CB B4 00 00
  can0  0AB   [8]  00 00 00 00 00 00 00 00
  can0  0AA   [8]  06 00 08 06 00 01 C1 01
  can0  0A8   [8]  22 00 6E 4D 10 00 AB 00
  can0  0A7   [8]  4A 09 F1 00 DB FF EE 00
  can0  0B0   [8]  7B 00 45 00 5F 01 4C 09
  can0  0A6   [8]  AC FF AC 00 5D FF 14 00
  can0  0A5   [8]  DF 04 5D 01 45 02 F6 03
  can0  0A4   [8]  01 00 00 00 00 00 00 00
  can0  0A3   [8]  9B 0D 70 1E E7 9D 87 1E
  can0  0B0   [8]  7B 00 76 00 61 01 4A 09
  can0  0B0   [8]  74 00 8B 00 61 01 4E 09
  can0  0B0   [8]  6F 00 B3 00 64 01 46 09
  can0  0AD   [8]  2A 07 00 00 00 00 D5 00
  can0  0AC   [8]  6F 00 C1 00 CF B4 00 00
  can0  0AB   [8]  00 00 00 00 00 00 00 00
  can0  0AA   [8]  06 00 08 06 00 01 C1 01
  can0  0A8   [8]  22 00 6E 4D D7 FF 7A 01
  can0  0A7   [8]  47 09 DA 00 D9 FF D6 00
  can0  0B0   [8]  6C 00 B6 00 64 01 54 09
  can0  0A6   [8]  53 01 EB FF CB FE 18 00
  can0  0A5   [8]  CF 00 64 01 51 02 F6 03
  can0  0A4   [8]  01 00 00 00 00 00 00 00
  can0  0A3   [8]  97 0D 60 1E E7 9D 77 1E
  can0  0B0   [8]  6A 00 A9 00 65 01 4E 09
  can0  0B0   [8]  69 00 AD 00 67 01 4C 09
  can0  0B0   [8]  6C 00 8C 00 67 01 4C 09
  can0  0AD   [8]  7D 06 00 00 00 00 D2 00
  can0  0AC   [8]  6C 00 7B 00 D3 B4 00 00
  can0  0AB   [8]  00 00 00 00 00 00 00 00
  can0  0AA   [8]  06 00 08 06 00 01 C1 01
  can0  0A8   [8]  22 00 6E 4D 2F 00 F2 00
  can0  0A7   [8]  52 09 C5 00 D5 FF C0 00
  can0  0B0   [8]  6E 00 64 00 68 01 4C 09
  can0  0A6   [8]  F8 FF 2E FF D1 00 18 00
  can0  0A5   [8]  EA 0A 67 01 56 02 F5 03
  can0  0A4   [8]  01 00 00 00 00 00 00 00
  can0  0A3   [8]  99 0D 70 1E E7 9D 77 1E
  can0  0B0   [8]  6F 00 3D 00 68 01 4C 09
  can0  0B0   [8]  70 00 39 00 68 01 4E 09
  can0  0B0   [8]  70 00 26 00 69 01 4E 09
  can0  0AD   [8]  C5 07 00 00 00 00 E0 00
  can0  0AC   [8]  70 00 2C 00 D7 B4 00 00
  can0  0AB   [8]  00 00 00 00 00 00 00 00
  can0  0AA   [8]  06 00 08 06 00 01 C1 01
  can0  0A8   [8]  22 00 6E 4D F0 FF 57 00
  can0  0A7   [8]  52 09 EC 00 D4 FF E8 00
  can0  0B0   [8]  70 00 38 00 69 01 4C 09
  can0  0A6   [8]  A9 FF 1F 00 18 00 13 00
  can0  0A5   [8]  FE 06 69 01 59 02 F5 03
  can0  0A4   [8]  01 00 00 00 00 00 00 00
  can0  0A3   [8]  99 0D 70 1E E7 9D 87 1E
  can0  0B0   [8]  74 00 58 00 69 01 47 09
  can0  0AE   [8]  10 00 4C 20 18 11 22 20
  can0  0A9   [8]  97 00 FB 00 F6 01 99 04
  can0  0A2   [8]  F0 D8 F0 D8 CA FD 00 00
  can0  0A1   [8]  24 01 22 08 3D 08 F0 D8
  can0  0A0   [8]  27 01 29 01 2B 01 24 01
  can0  0B0   [8]  77 00 68 00 68 01 47 09
  can0  0B0   [8]  79 00 9C 00 68 01 44 09
  can0  0AD   [8]  D9 07 00 00 00 00 EB 00
  can0  0AC   [8]  79 00 A8 00 DB B4 00 00
  can0  0AB   [8]  00 00 00 00 00 00 00 00
  can0  0AA   [8]  06 00 08 06 00 01 C1 01
  can0  0A8   [8]  22 00 6E 4D CF FF 4B 01
  can0  0A7   [8]  47 09 EF 00 E2 FF ED 00
  can0  0B0   [8]  7A 00 B7 00 6A 01 46 09
  can0  0A6   [8]  0F 00 19 01 CE FE 18 00
  can0  0A5   [8]  15 03 68 01 58 02 F4 03
  can0  0A4   [8]  01 00 00 00 00 00 00 00
  can0  0A3   [8]  9B 0D 70 1E E7 9D 87 1E
  can0  0B0   [8]  7A 00 C2 00 6E 01 47 09
  can0  0B0   [8]  76 00 AC 00 6E 01 4C 09
  can0  0B0   [8]  73 00 7B 00 6D 01 47 09
  can0  0AD   [8]  8A 06 00 00 00 00 E0 00
  can0  0AC   [8]  73 00 6F 00 DF B4 00 00
  can0  0AB   [8]  00 00 00 00 00 00 00 00
  can0  0AA   [8]  06 00 08 06 00 01 C1 01
  can0  0A8   [8]  22 00 6E 4D 10 00 D9 00
  can0  0A7   [8]  4C 09 C7 00 DE FF C4 00
  can0  0B0   [8]  71 00 5F 00 6F 01 50 09
  can0  0A6   [8]  CA 00 54 FF 0C 00 1B 00
  can0  0A5   [8]  62 0D 6D 01 60 02 F3 03
  can0  0A4   [8]  01 00 00 00 00 00 00 00
  can0  0A3   [8]  99 09 70 1E E7 9D 87 1E
  can0  0B0   [8]  70 00 37 00 6F 01 4E 09
  can0  0B0   [8]  6F 00 27 00 71 01 52 09
  can0  0B0   [8]  6B 00 4E 00 72 01 52 09
  can0  0AD   [8]  53 08 00 00 00 00 D5 00
  can0  0AC   [8]  6B 00 4C 00 E3 B4 00 00
  can0  0AB   [8]  00 00 00 00 00 00 00 00
  can0  0AA   [8]  06 00 08 06 00 01 C1 01
  can0  0A8   [8]  22 00 6E 4D E7 FF 94 00
  can0  0A7   [8]  4C 09 FD 00 D6 FF FA 00
  can0  0B0   [8]  69 00 69 00 71 01 4C 09
  can0  0A6   [8]  E1 FF 8F FF AA 00 11 00
  can0  0A5   [8]  B6 09 72 01 68 02 F3 03
  can0  0A4   [8]  01 00 00 00 00 00 00 00
  can0  0A3   [8]  97 09 70 1E E7 9D 87 1E
  can0  0B0   [8]  68 00 93 00 73 01 41 09
  can0  0B0   [8]  67 00 A6 00 73 01 47 09
  can0  0B0   [8]  66 00 9D 00 73 01 41 09
  can0  0AD   [8]  C3 06 00 00 00 00 C5 00
  can0  0AC   [8]  66 00 94 00 E7 B4 00 00
  can0  0AB   [8]  00 00 00 00 00 00 00 00
  can0  0AA   [8]  06 00 08 06 00 01 C1 01
  can0  0A8   [8]  22 00 6E 4D 1E 00 23 01
  can0  0A7   [8]  50 09 CE 00 D8 FF C9 00
  can0  0B0   [8]  66 00 83 00 75 01 4A 09
  can0  0A6   [8]  02 FF FE 00 F7 FF 18 00
  can0  0A5   [8]  17 06 73 01 6A 02 F3 03
  can0  0A4   [8]  01 00 00 00 00 00 00 00
  can0  0A3   [8]  97 0D 70 1E E8 9D 87 1E
  can0  0B0   [8]  65 00 3F 00 72 01 50 09
  can0  0B0   [8]  65 00 24 00 74 01 4A 09
  can0  0B0   [8]  64 00 33 00 77 01 46 09
  can0  0AD   [8]  4E 08 00 00 00 00 C8 00
  can0  0AC   [8]  64 00 37 00 EB B4 00 00
  can0  0AB   [8]  00 00 00 00 00 00 00 00
  can0  0AA   [8]  06 00 08 06 00 01 C1 01
  can0  0A8   [8]  22 00 6E 4D D0 FF 6C 00
  can0  0A7   [8]  4A 09 FC 00 D0 FF F8 00
  can0  0B0   [8]  64 00 47 00 75 01 4A 09
  can0  0A6   [8]  01 00 65 00 61 FF 10 00
  can0  0A5   [8]  8D 02 77 01 70 02 F4 03
  can0  0A4   [8]  01 00 00 00 00 00 00 00
  can0  0A3   [8]  97 0D 70 1E E8 A1 87 1E
  can0  0B0   [8]  64 00 77 00 76 01 4E 09
  can0  0B0   [8]  65 00 93 00 77 01 46 09
  can0  0B0   [8]  65 00 8D 00 76 01 4A 09
  can0  0AD   [8]  E5 06 00 00 00 00 C5 00
  can0  0AC   [8]  65 00 84 00 EF B4 00 00
  can0  0AB   [8]  00 00 00 00 00 00 00 00
  can0  0AA   [8]  06 00 08 06 00 01 C1 01
  can0  0A8   [8]  22 00 6E 4D 1E 00 02 01
  can0  0A7   [8]  47 09 D1 00 D4 FF CD 00
  can0  0B0   [8]  66 00 5F 00 75 01 46 09
  can0  0A6   [8]  DC 00 1A FF ED FF 18 00
  can0  0A5   [8]  13 0D 76 01 6F 02 F3 03
  can0  0A4   [8]  01 00 00 00 00 00 00 00
  can0  0A3   [8]  97 0D 70 1E E8 A1 77 1E
  can0  0B0   [8]  66 00 3F 00 78 01 52 09
  can0  0B0   [8]  66 00 37 00 76 01 4E 09
  can0  0B0   [8]  65 00 33 00 74 01 4E 09
  can0  0AD   [8]  93 07 00 00 00 00 CA 00
  can0  0AC   [8]  65 00 27 00 F3 B4 00 00
  can0  0AB   [8]  00 00 00 00 00 00 00 00
  can0  0AA   [8]  06 00 08 06 00 01 C1 01
  can0  0A8   [8]  22 00 6E 4D 00 00 4D 00
  can0  0A7   [8]  5D 09 E6 00 E5 FF E5 00
  can0  0B0   [8]  64 00 4B 00 77 01 47 09
  can0  0A6   [8]  DD FF D5 FF 36 00 13 00
  can0  0A5   [8]  85 09 74 01 6C 02 F2 03
  can0  0A4   [8]  01 00 00 00 00 00 00 00
  can0  0A3   [8]  96 0D 70 1E E7 9D 77 1E
  can0  0B0   [8]  64 00 93 00 74 01 46 09
  can0  0B0   [8]  64 00 9D 00 77 01 46 09
  can0  0B0   [8]  64 00 9D 00 78 01 4A 09
  can0  0AD   [8]  DF 06 00 00 00 00 C0 00
  can0  0AC   [8]  64 00 92 00 F7 B4 00 00
  can0  0AB   [8]  00 00 00 00 00 00 00 00
  can0  0AA   [8]  06 00 08 06 00 01 C1 01
  can0  0A8   [8]  22 00 6E 4D 0E 00 2B 01
  can0  0B0   [8]  64 00 A0 00 73 01 4E 09
  can0  0A7   [8]  4A 09 D3 00 EF FF D2 00
  can0  0A6   [8]  F4 FE FB 00 E4 FF 18 00
  can0  0A5   [8]  15 06 78 01 72 02 F1 03
  can0  0A4   [8]  01 00 00 00 00 00 00 00
  can0  0A3   [8]  96 0D 70 1E E8 A5 87 1E
  can0  0B0   [8]  63 00 72 00 74 01 46 09
  can0  0B0   [8]  63 00 2C 00 74 01 4A 09
  can0  0B0   [8]  63 00 37 00 74 01 4C 09
  can0  0AE   [8]  10 00 4C 20 18 11 22 20
  can0  0AD   [8]  68 08 00 00 00 00 C5 00
  can0  0AC   [8]  63 00 46 00 FB B4 00 00
  can0  0AB   [8]  00 00 00 00 00 00 00 00
  can0  0AA   [8]  06 00 08 06 00 01 C1 01
  can0  0A9   [8]  97 00 FB 00 F7 01 9D 04
  can0  0B0   [8]  63 00 47 00 74 01 52 09
  can0  0A8   [8]  22 00 6E 4D C7 FF 89 00
  can0  0A7   [8]  50 09 FF 00 CD FF FA 00
  can0  0A6   [8]  11 00 77 00 51 FF 10 00
  can0  0A5   [8]  61 02 74 01 6B 02 F2 03
  can0  0A4   [8]  01 00 00 00 00 00 00 00
  can0  0B0   [8]  63 00 50 00 75 01 50 09
  can0  0A3   [8]  96 09 70 1E E7 9D 87 1E
  can0  0A2   [8]  F0 D8 F0 D8 CA FD 00 00
  can0  0A1   [8]  24 01 22 08 3D 08 F0 D8
  can0  0A0   [8]  27 01 29 01 2B 01 23 01
  can0  0B0   [8]  64 00 62 00 74 01 47 09
  can0  0B0   [8]  64 00 95 00 74 01 4E 09
  can0  0AD   [8]  29 07 00 00 00 00 C2 00
  can0  0AC   [8]  64 00 93 00 FF B4 00 00
  can0  0AB   [8]  00 00 00 00 00 00 00 00
  can0  0AA   [8]  06 00 08 06 00 01 C1 01
  can0  0A8   [8]  22 00 6E 4D FF FF 20 01
  can0  0A7   [8]  4C 09 DA 00 CA FF D3 00
  can0  0B0   [8]  65 00 6D 00 76 01 47 09
  can0  0A6   [8]  F7 00 05 FF F1 FF 16 00
  can0  0A5   [8]  DC 0C 74 01 6B 02 F1 03
  can0  0A4   [8]  01 00 00 00 00 00 00 00
  can0  0A3   [8]  97 0D 70 1E E7 9D 87 1E
  can0  0B0   [8]  65 00 4A 00 75 01 57 09
  can0  0B0   [8]  65 00 51 00 77 01 4E 09
  can0  0B0   [8]  67 00 38 00 78 01 4C 09
  can0  0AD   [8]  73 07 00 00 00 00 CD 00
  can0  0AC   [8]  67 00 2B 00 03 B5 00 00
  can0  0AB   [8]  00 00 00 00 00 00 00 00
  can0  0AA   [8]  06 00 08 06 00 01 C1 01
  can0  0A8   [8]  22 00 6E 4D FE FF 54 00
  can0  0A7   [8]  50 09 E2 00 D6 FF DE 00
  can0  0B0   [8]  68 00 3C 00 77 01 46 09
  can0  0A6   [8]  D7 FF D4 FF 42 00 13 00
  can0  0A5   [8]  5D 09 78 01 72 02 F2 03
  can0  0A4   [8]  01 00 00 00 00 00 00 00
  can0  0A3   [8]  98 0D 70 1E E7 9D 87 1E
  can0  0B0   [8]  69 00 84 00 78 01 50 09
  can0  0B0   [8]  6A 00 AC 00 77 01 4A 09
  can0  0B0   [8]  6A 00 AF 00 77 01 4E 09
  can0  0AD   [8]  2C 07 00 00 00 00 CC 00
  can0  0AC   [8]  6A 00 B0 00 07 B5 00 00
  can0  0AB   [8]  00 00 00 00 00 00 00 00
  can0  0AA   [8]  06 00 08 06 00 01 C1 01
  can0  0A8   [8]  22 00 6E 4D 13 00 59 01
  can0  0A7   [8]  52 09 DA 00 E0 FF D7 00
  can0  0B0   [8]  6A 00 B2 00 7A 01 52 09
  can0  0A6   [8]  DF FE 36 01 F0 FF 18 00
  can0  0A5   [8]  D8 05 77 01 70 02 F4 03
  can0  0A4   [8]  01 00 00 00 00 00 00 00
  can0  0A3   [8]  98 0D 70 1E E8 9D 87 1E
  can0  0B0   [8]  6A 00 68 00 7B 01 4A 09
  can0  0B0   [8]  6A 00 32 00 7A 01 52 09
  can0  0B0   [8]  69 00 31 00 7A 01 4C 09
  can0  0AD   [8]  49 08 00 00 00 00 D2 00
  can0  0AC   [8]  69 00 39 00 0B B5 00 00
  can0  0AB   [8]  00 00 00 00 00 00 00 00
  can0  0AA   [8]  06 00 08 06 00 01 C1 01
  can0  0A8   [8]  22 00 6E 4D E3 FF 71 00
  can0  0A7   [8]  4C 09 FC 00 CE FF F7 00
  can0  0B0   [8]  69 00 59 00 7B 01 52 09
  can0  0A6   [8]  18 00 55 00 88 FF 12 00
  can0  0A5   [8]  65 02 7A 01 75 02 F5 03
  can0  0A4   [8]  01 00 00 00 00 00 00 00
  can0  0A3   [8]  98 0D 70 1E E7 9D 87 1E
  can0  0B0   [8]  69 00 8D 00 7D 01 50 09
  can0  0B0   [8]  68 00 B3 00 7E 01 4A 09
  can0  0B0   [8]  68 00 94 00 7C 01 47 09
  can0  0AD   [8]  C8 06 00 00 00 00 C9 00
  can0  0AC   [8]  68 00 89 00 0F B5 00 00
  can0  0AB   [8]  00 00 00 00 00 00 00 00
  can0  0AA   [8]  06 00 08 06 00 01 C1 01
  can0  0A8   [8]  22 00 6E 4D 15 00 0D 01
  can0  0A7   [8]  47 09 CE 00 DE FF CB 00
  can0  0B0   [8]  67 00 76 00 7C 01 4E 09
  can0  0A6   [8]  F0 00 1C FF F3 FF 19 00
  can0  0A5   [8]  2C 0D 7C 01 78 02 F5 03
  can0  0A4   [8]  01 00 00 00 00 00 00 00
  can0  0A3   [8]  97 09 70 1E E7 9D 87 1E
  can0  0B0   [8]  67 00 3A 00 7B 01 57 09
  can0  0B0   [8]  67 00 22 00 7B 01 4A 09
  can0  0B0   [8]  68 00 54 00 7C 01 4C 09
  can0  0AD   [8]  59 08 00 00 00 00 CD 00
  can0  0AC   [8]  68 00 63 00 13 B5 00 00
  can0  0AB   [8]  00 00 00 00 00 00 00 00
  can0  0AA   [8]  06 00 08 06 00 01 C1 01
  can0  0A8   [8]  22 00 6E 4D E2 FF C3 00
  can0  0A7   [8]  52 09 FE 00 D7 FF FA 00
  can0  0B0   [8]  68 00 7D 00 7A 01 44 09
  can0  0A6   [8]  DB FF 6A FF BC 00 12 00
  can0  0A5   [8]  C9 09 7C 01 79 02 F5 03
  can0  0A4   [8]  01 00 00 00 00 00 00 00
  can0  0A3   [8]  98 09 70 1E E7 9D 87 1E
  can0  0B0   [8]  69 00 A3 00 7A 01 4A 09
  can0  0B0   [8]  69 00 B3 00 79 01 4E 09
  can0  0B0   [8]  69 00 7B 00 79 01 4E 09
  can0  0AD   [8]  ED 06 00 00 00 00 CD 00
  can0  0AC   [8]  69 00 70 00 17 B5 00 00
  can0  0AB   [8]  00 00 00 00 00 00 00 00
  can0  0AA   [8]  06 00 08 06 00 01 C1 01
  can0  0A8   [8]  22 00 6E 4D 2B 00 DD 00
  can0  0A7   [8]  50 09 D2 00 CC FF CC 00
  can0  0B0   [8]  69 00 42 00 7C 01 52 09
  can0  0A6   [8]  3B FF C1 00 FB FF 18 00
  can0  0A5   [8]  56 06 79 01 74 02 F5 03
  can0  0A4   [8]  01 00 00 00 00 00 00 00
  can0  0A3   [8]  98 0D 70 1E E7 9D 87 1E
  can0  0B0   [8]  6A 00 26 00 7B 01 44 09
  can0  0B0   [8]  6B 00 2A 00 7C 01 47 09
  can0  0B0   [8]  6B 00 7B 00 7D 01 4A 09
  can0  0AD   [8]  2D 08 00 00 00 00 D2 00
  can0  0AC   [8]  6B 00 82 00 1B B5 00 00
  can0  0AB   [8]  00 00 00 00 00 00 00 00
  can0  0AA   [8]  06 00 08 06 00 01 C1 01
  can0  0A8   [8]  22 00 6E 4D D0 FF FF 00
  can0  0A7   [8]  4E 09 F9 00 D5 FF F5 00
  can0  0B0   [8]  6C 00 98 00 7C 01 4A 09
  can0  0A6   [8]  0B 00 DA 00 09 FF 14 00
  can0  0A5   [8]  FF 02 7D 01 7A 02 F6 03
  can0  0A4   [8]  01 00 00 00 00 00 00 00
  can0  0A3   [8]  98 0D 70 1E E7 9D 87 1E
  can0  0B0   [8]  6C 00 BE 00 7E 01 4C 09
  can0  0AE   [8]  10 00 4C 20 18 11 22 20
  can0  0A9   [8]  97 00 FA 00 F6 01 8F 04
  can0  0A2   [8]  F0 D8 F0 D8 CA FD 00 00
  can0  0A1   [8]  24 01 22 08 3D 08 F0 D8
  can0  0A0   [8]  27 01 29 01 2B 01 23 01
  can0  0B0   [8]  6D 00 7B 00 7D 01 4A 09
  can0  0B0   [8]  6E 00 3F 00 7E 01 4A 09
  can0  0AD   [8]  77 07 00 00 00 00 DA 00
  can0  0AC   [8]  6E 00 35 00 1F B5 00 00
  can0  0AB   [8]  00 00 00 00 00 00 00 00
  can0  0AA   [8]  06 00 08 06 00 01 C1 01
  can0  0A8   [8]  22 00 6E 4D 0A 00 68 00
  can0  0A7   [8]  4E 09 E3 00 C8 FF DC 00
  can0  0B0   [8]  6F 00 1C 00 7E 01 4E 09
  can0  0A6   [8]  65 00 B7 FF D6 FF 16 00
  can0  0A5   [8]  BA 0D 7E 01 7C 02 F7 03
  can0  0A4   [8]  01 00 00 00 00 00 00 00
  can0  0A3   [8]  99 0D 60 1E E7 9D 77 1E
  can0  0B0   [8]  6F 00 4C 00 7E 01 4E 09
  can0  0B0   [8]  6F 00 60 00 7E 01 4C 09
  can0  0B0   [8]  72 00 9C 00 7D 01 4C 09
  can0  0AD   [8]  C3 07 00 00 00 00 DD 00
  can0  0AC   [8]  72 00 9D 00 23 B5 00 00
  can0  0AB   [8]  00 00 00 00 00 00 00 00
  can0  0AA   [8]  06 00 08 06 00 01 C1 01
  can0  0A8   [8]  22 00 6E 4D FF FF 34 01
  can0  0A7   [8]  50 09 EC 00 D9 FF E9 00
  can0  0B0   [8]  73 00 A4 00 7D 01 4E 09
  can0  0A6   [8]  ED FF FF FE 14 01 18 00
  can0  0A5   [8]  66 0A 7D 01 7B 02 F6 03
  can0  0A4   [8]  01 00 00 00 00 00 00 00
  can0  0A3   [8]  9A 0D 80 1E E7 9D 97 1E
  can0  0B0   [8]  74 00 5C 00 7B 01 4C 09
  can0  0B0   [8]  75 00 3E 00 7B 01 4C 09
  can0  0B0   [8]  75 00 36 00 78 01 4E 09
  can0  0AD   [8]  8E 07 00 00 00 00 EA 00
  can0  0AC   [8]  75 00 33 00 27 B5 00 00
  can0  0AB   [8]  00 00 00 00 00 00 00 00
  can0  0AA   [8]  06 00 08 06 00 01 C1 01
  can0  0A8   [8]  22 00 6E 4D 03 00 65 00
  can0  0A7   [8]  50 09 E5 00 E2 FF E4 00
  can0  0B0   [8]  76 00 32 00 76 01 4E 09
  can0  0A6   [8]  9B FF 38 00 08 00 17 00
  can0  0A5   [8]  F4 06 78 01 72 02 F6 03
  can0  0A4   [8]  01 00 00 00 00 00 00 00
  can0  0A3   [8]  9A 0D 70 1E E7 9D 87 1E
  can0  0B0   [8]  74 00 6C 00 77 01 4E 09
  can0  0B0   [8]  73 00 AB 00 75 01 4A 09
  can0  0B0   [8]  72 00 AD 00 76 01 47 09
  can0  0AD   [8]  E4 06 00 00 00 00 DC 00
  can0  0AC   [8]  72 00 B6 00 2B B5 00 00
  can0  0AB   [8]  00 00 00 00 00 00 00 00
  can0  0AA   [8]  06 00 08 06 00 01 C1 01
  can0  0A8   [8]  22 00 6E 4D E6 FF 66 01
  can0  0A7   [8]  50 09 D1 00 F0 FF D0 00
  can0  0B0   [8]  72 00 B5 00 75 01 4E 09
  can0  0A6   [8]  FC FF 38 01 A9 FE 1C 00
  can0  0A5   [8]  61 03 76 01 6E 02 F6 03
  can0  0A4   [8]  01 00 00 00 00 00 00 00
  can0  0A3   [8]  99 0D 70 1E E7 9D 87 1E
  can0  0B0   [8]  72 00 AC 00 6F 01 4E 09
  can0  0B0   [8]  71 00 8C 00 6E 01 4A 09
  can0  0B0   [8]  71 00 3D 00 6E 01 47 09
  can0  0AD   [8]  8A 07 00 00 00 00 E2 00
  can0  0AC   [8]  71 00 35 00 2F B5 00 00
  can0  0AB   [8]  00 00 00 00 00 00 00 00
  can0  0AA   [8]  06 00 08 06 00 01 C1 01
  can0  0A8   [8]  22 00 6E 4D 0D 00 67 00
  can0  0A7   [8]  4C 09 E5 00 C3 FF DD 00
  can0  0B0   [8]  71 00 32 00 6B 01 4C 09
  can0  0A6   [8]  63 00 B2 FF D2 FF 15 00
  can0  0A5   [8]  A8 0D 6E 01 62 02 F5 03
  can0  0A4   [8]  01 00 00 00 00 00 00 00
  can0  0A3   [8]  99 11 60 1E E7 9D 77 1E
  can0  0B0   [8]  71 00 4E 00 6A 01 59 09
  can0  0B0   [8]  71 00 39 00 6B 01 50 09
  can0  0B0   [8]  6D 00 3D 00 6A 01 52 09
  can0  0AD   [8]  FD 07 00 00 00 00 D8 00
  can0  0AC   [8]  6D 00 51 00 33 B5 00 00
  can0  0AB   [8]  00 00 00 00 00 00 00 00
  can0  0AA   [8]  06 00 08 06 00 01 C1 01
  can0  0A8   [8]  22 00 6E 4D 03 00 8E 00
  can0  0A7   [8]  4E 09 F1 00 DE FF EF 00
  can0  0B0   [8]  6B 00 78 00 6A 01 4C 09
  can0  0A6   [8]  CC FF A6 FF 5A 00 12 00
  can0  0A5   [8]  C6 09 6A 01 5C 02 F4 03
  can0  0A4   [8]  01 00 00 00 00 00 00 00
  can0  0A3   [8]  97 11 70 1E E7 9D 77 1E
  can0  0B0   [8]  6A 00 B2 00 6A 01 46 09
  can0  0B0   [8]  69 00 A3 00 69 01 4E 09
  can0  0B0   [8]  68 00 A0 00 6A 01 4A 09
  can0  0AD   [8]  E5 06 00 00 00 00 CA 00
  can0  0AC   [8]  68 00 9D 00 37 B5 00 00
  can0  0AB   [8]  00 00 00 00 00 00 00 00
  can0  0AA   [8]  06 00 08 06 00 01 C1 01
  can0  0A8   [8]  22 00 6E 4D F4 FF 39 01
  can0  0A7   [8]  47 09 D4 00 E4 FF D2 00
  can0  0B0   [8]  68 00 AA 00 6B 01 57 09
  can0  0A6   [8]  E9 FE 07 01 E4 FF 17 00
  can0  0A5   [8]  E2 05 6A 01 5A 02 F5 03
  can0  0A4   [8]  01 00 00 00 00 00 00 00
  can0  0A3   [8]  97 0D 70 1E E8 9D 87 1E
  can0  0B0   [8]  66 00 85 00 6C 01 4A 09
  can0  0B0   [8]  65 00 41 00 6D 01 4A 09
  can0  0B0   [8]  64 00 27 00 6C 01 47 09
  can0  0AD   [8]  DC 07 00 00 00 00 C8 00
  can0  0AC   [8]  64 00 2C 00 3B B5 00 00
  can0  0AB   [8]  00 00 00 00 00 00 00 00
  can0  0AA   [8]  06 00 08 06 00 01 C1 01
  can0  0A8   [8]  22 00 6E 4D FB FF 3E 00
  can0  0A7   [8]  46 09 EC 00 C9 FF E5 00
  can0  0B0   [8]  64 00 35 00 6B 01 52 09
  can0  0A6   [8]  20 00 1D 00 8E FF 11 00
  can0  0A5   [8]  13 02 6C 01 5E 02 F5 03
  can0  0A4   [8]  01 00 00 00 00 00 00 00
  can0  0A3   [8]  96 0D 70 1E E8 A1 87 1E
  can0  0B0   [8]  64 00 31 00 6D 01 4E 09
  can0  0B0   [8]  64 00 4C 00 6E 01 52 09
  can0  0B0   [8]  64 00 78 00 6D 01 4E 09
  can0  0AE   [8]  10 00 4C 20 18 11 22 20
  can0  0AD   [8]  AE 07 00 00 00 00 C2 00
  can0  0AC   [8]  64 00 8B 00 3F B5 00 00
  can0  0AB   [8]  00 00 00 00 00 00 00 00
  can0  0AA   [8]  06 00 08 06 00 01 C1 01
  can0  0A9   [8]  97 00 FB 00 F6 01 9B 04
  can0  0B0   [8]  63 00 9A 00 6D 01 47 09
  can0  0A8   [8]  22 00 6E 4D D7 FF 11 01
  can0  0A7   [8]  4E 09 ED 00 D7 FF E9 00
  can0  0A6   [8]  DA 00 14 FF 08 00 13 00
  can0  0A5   [8]  58 0C 6D 01 60 02 F5 03
  can0  0A4   [8]  01 00 00 00 00 00 00 00
  can0  0B0   [8]  63 00 A4 00 6C 01 4A 09
  can0  0A3   [8]  96 0D 70 1E E8 A1 87 1E
  can0  0A2   [8]  F0 D8 F0 D8 CA FD 00 00
  can0  0A1   [8]  24 01 22 08 3D 08 F0 D8
  can0  0A0   [8]  28 01 29 01 2B 01 22 01
  can0  0B0   [8]  63 00 A4 00 6C 01 4E 09
  can0  0B0   [8]  68 00 7E 00 6E 01 4C 09
  can0  0AD   [8]  90 06 00 00 00 00 CB 00
  can0  0AC   [8]  68 00 75 00 43 B5 00 00
  can0  0AB   [8]  00 00 00 00 00 00 00 00
  can0  0AA   [8]  06 00 08 06 00 01 C1 01
  can0  0A8   [8]  22 00 6E 4D 22 00 E5 00
  can0  0A7   [8]  4C 09 C7 00 E0 FF C5 00
  can0  0B0   [8]  6C 00 63 00 6F 01 4C 09
  can0  0A6   [8]  2B FF F8 FF DA 00 18 00
  can0  0A5   [8]  8E 08 6E 01 62 02 F4 03
  can0  0A4   [8]  01 00 00 00 00 00 00 00
  can0  0A3   [8]  99 0D 60 1E E8 A1 77 1E
  can0  0B0   [8]  6E 00 38 00 6C 01 50 09
  can0  0B0   [8]  6F 00 2B 00 6D 01 52 09
  can0  0B0   [8]  70 00 2C 00 6F 01 50 09
  can0  0AD   [8]  25 08 00 00 00 00 DE 00
  can0  0AC   [8]  70 00 35 00 47 B5 00 00
  can0  0AB   [8]  00 00 00 00 00 00 00 00
  can0  0AA   [8]  06 00 08 06 00 01 C1 01
  can0  0A8   [8]  22 00 6E 4D FC FF 68 00
  can0  0A7   [8]  52 09 F8 00 D7 FF F4 00
  can0  0B0   [8]  70 00 4F 00 70 01 4C 09
  can0  0A6   [8]  C2 FF 67 00 E0 FF 12 00
  can0  0A5   [8]  C8 04 6F 01 63 02 F3 03
  can0  0A4   [8]  01 00 00 00 00 00 00 00
  can0  0A3   [8]  99 0D 60 1E E7 9D 77 1E
  can0  0B0   [8]  74 00 94 00 72 01 44 09
  can0  0B0   [8]  76 00 B9 00 71 01 44 09
  can0  0B0   [8]  78 00 C4 00 73 01 47 09
  can0  0AD   [8]  04 07 00 00 00 00 E7 00
  can0  0AC   [8]  78 00 B1 00 4B B5 00 00
  can0  0AB   [8]  00 00 00 00 00 00 00 00
  can0  0AA   [8]  06 00 08 06 00 01 C1 01
  can0  0A8   [8]  22 00 6E 4D 29 00 5B 01
  can0  0B0   [8]  78 00 BA 00 72 01 4E 09
  can0  0A7   [8]  47 09 D5 00 DD FF D2 00
  can0  0A6   [8]  3A 01 E9 FF B3 FE 1C 00
  can0  0A5   [8]  4A 01 73 01 6A 02 F3 03
  can0  0A4   [8]  01 00 00 00 00 00 00 00
  can0  0A3   [8]  9B 0D 60 1E E7 A1 77 1E
  can0  0B0   [8]  79 00 74 00 75 01 4E 09
  can0  0B0   [8]  7B 00 48 00 79 01 47 09
  can0  0B0   [8]  7C 00 33 00 79 01 4E 09
  can0  0AD   [8]  66 08 00 00 00 00 F8 00
  can0  0AC   [8]  7C 00 3D 00 4F B5 00 00
  can0  0AB   [8]  00 00 00 00 00 00 00 00
  can0  0AA   [8]  06 00 08 06 00 01 C1 01
  can0  0A8   [8]  22 00 6E 4D E8 FF 77 00
  can0  0A7   [8]  4E 09 FF 00 CA FF FA 00
  can0  0B0   [8]  7D 00 4F 00 7D 01 4E 09
  can0  0A6   [8]  53 00 89 FF 21 00 15 00
  can0  0A5   [8]  BE 0B 78 01 73 02 F4 03
  can0  0A4   [8]  01 00 00 00 00 00 00 00
  can0  0A3   [8]  9C 0D 60 1E E7 A1 77 1E
  can0  0B0   [8]  7D 00 AF 00 7E 01 54 09
  can0  0B0   [8]  7E 00 CA 00 81 01 4A 09
  can0  0B0   [8]  79 00 91 00 85 01 4A 09
  can0  0AD   [8]  FB 06 00 00 00 00 EB 00
  can0  0AC   [8]  79 00 8C 00 53 B5 00 00
  can0  0AB   [8]  00 00 00 00 00 00 00 00
  can0  0AA   [8]  06 00 08 06 00 01 C1 01
  can0  0A8   [8]  22 00 6E 4D 35 00 14 01
  can0  0A7   [8]  50 09 D4 00 CF FF CE 00
  can0  0B0   [8]  76 00 54 00 86 01 4A 09
  can0  0A6   [8]  10 FF F8 FF EE 00 1D 00
  can0  0A5   [8]  B2 08 85 01 88 02 F4 03
  can0  0A4   [8]  01 00 00 00 00 00 00 00
  can0  0A3   [8]  99 0D 70 1E E7 99 77 1E
  can0  0B0   [8]  74 00 34 00 89 01 4C 09
  can0  0B0   [8]  73 00 73 00 8A 01 50 09
  can0  0B0   [8]  72 00 AC 00 88 01 4C 09
  can0  0AD   [8]  CC 07 00 00 00 00 DD 00
  can0  0AC   [8]  72 00 B5 00 57 B5 00 00
  can0  0AB   [8]  00 00 00 00 00 00 00 00
  can0  0AA   [8]  06 00 08 06 00 01 C1 01
  can0  0A8   [8]  22 00 6E 4D F1 FF 63 01
  can0  0A7   [8]  52 09 ED 00 E0 FF EB 00
  can0  0B0   [8]  72 00 B9 00 86 01 4E 09
  can0  0A6   [8]  D1 FE 3A 01 E0 FF 19 00
  can0  0A5   [8]  B0 05 88 01 8E 02 F6 03
  can0  0A4   [8]  01 00 00 00 00 00 00 00
  can0  0A3   [8]  99 0D 70 1E E7 9D 77 1E
  can0  0B0   [8]  73 00 80 00 83 01 50 09
  can0  0B0   [8]  74 00 37 00 83 01 4E 09
  can0  0B0   [8]  74 00 31 00 7E 01 4E 09
  can0  0AD   [8]  6E 08 00 00 00 00 E7 00
  can0  0AC   [8]  74 00 42 00 5B B5 00 00
  can0  0AB   [8]  00 00 00 00 00 00 00 00
  can0  0AA   [8]  06 00 08 06 00 01 C1 01
  can0  0A8   [8]  22 00 6E 4D CA FF 83 00
  can0  0A7   [8]  46 09 00 01 D1 FF FB 00
  can0  0B0   [8]  74 00 4A 00 7C 01 50 09
  can0  0A6   [8]  0D 00 72 00 51 FF 13 00
  can0  0A5   [8]  6A 02 7F 01 7D 02 F7 03
  can0  0A4   [8]  01 00 00 00 00 00 00 00
  can0  0A3   [8]  9A 09 70 1E E8 A1 77 1E
  can0  0B0   [8]  75 00 69 00 74 01 54 09
  can0  0B0   [8]  70 00 77 00 71 01 4E 09
  can0  0B0   [8]  6D 00 A5 00 6F 01 4A 09
  can0  0AD   [8]  06 07 00 00 00 00 D2 00
  can0  0AC   [8]  6D 00 A6 00 5F B5 00 00
  can0  0AB   [8]  00 00 00 00 00 00 00 00
  can0  0AA   [8]  06 00 08 06 00 01 C1 01
  can0  0A8   [8]  22 00 6E 4D 07 00 45 01
  can0  0A7   [8]  4C 09 D5 00 D8 FF D1 00
  can0  0B0   [8]  6C 00 86 00 69 01 4C 09
  can0  0A6   [8]  0B 01 D9 FE D8 FF 18 00
  can0  0A5   [8]  C2 0C 6F 01 63 02 F5 03
  can0  0A4   [8]  01 00 00 00 00 00 00 00
  can0  0A3   [8]  98 0D 70 1E E8 A1 87 1E
  can0  0B0   [8]  6A 00 7B 00 68 01 4C 09
  can0  0AE   [8]  10 00 4C 20 18 11 22 20
  can0  0A9   [8]  97 00 FA 00 F7 01 9D 04
  can0  0A2   [8]  F0 D8 F0 D8 CA FD 00 00
  can0  0A1   [8]  24 01 22 08 3D 08 F0 D8
  can0  0A0   [8]  28 01 29 01 2B 01 23 01
  can0  0B0   [8]  6A 00 96 00 66 01 4E 09
  can0  0B0   [8]  6B 00 9C 00 5E 01 4C 09
  can0  0AD   [8]  59 06 00 00 00 00 D0 00
  can0  0AC   [8]  6B 00 86 00 63 B5 00 00
  can0  0AB   [8]  00 00 00 00 00 00 00 00
  can0  0AA   [8]  06 00 08 06 00 01 C1 01
  can0  0A8   [8]  22 00 6E 4D 1E 00 07 01
  can0  0A7   [8]  52 09 C1 00 F4 FF C0 00
  can0  0B0   [8]  6C 00 94 00 5D 01 4E 09
  can0  0A6   [8]  22 FF F1 FF C3 00 18 00
  can0  0A5   [8]  97 08 5E 01 47 02 F4 03
  can0  0A4   [8]  01 00 00 00 00 00 00 00
  can0  0A3   [8]  98 0D 70 1E E7 A1 87 1E
  can0  0B0   [8]  6C 00 41 00 5B 01 4A 09
  can0  0B0   [8]  6C 00 2A 00 5A 01 4E 09
  can0  0B0   [8]  6C 00 38 00 5B 01 50 09
  can0  0AD   [8]  2F 07 00 00 00 00 D8 00
  can0  0AC   [8]  6C 00 3B 00 67 B5 00 00
  can0  0AB   [8]  00 00 00 00 00 00 00 00
  can0  0AA   [8]  06 00 08 06 00 01 C1 01
  can0  0A8   [8]  22 00 6E 4D 10 00 74 00
  can0  0A7   [8]  52 09 DA 00 ED FF D9 00
  can0  0B0   [8]  6C 00 50 00 5D 01 52 09
  can0  0A6   [8]  E9 FF 6F 00 7A FF 13 00
  can0  0A5   [8]  47 04 5B 01 41 02 F4 03
  can0  0A4   [8]  01 00 00 00 00 00 00 00
  can0  0A3   [8]  98 0D 60 1E E9 A5 77 1E
  can0  0B0   [8]  6B 00 49 00 5D 01 52 09
  can0  0B0   [8]  69 00 2F 00 5F 01 50 09
  can0  0B0   [8]  69 00 45 00 60 01 4A 09
  can0  0AD   [8]  14 08 00 00 00 00 CF 00
  can0  0AC   [8]  69 00 53 00 6B B5 00 00
  can0  0AB   [8]  00 00 00 00 00 00 00 00
  can0  0AA   [8]  06 00 08 06 00 01 C1 01
  can0  0A8   [8]  22 00 6E 4D E2 FF A3 00
  can0  0A7   [8]  47 09 F6 00 C5 FF EE 00
  can0  0B0   [8]  68 00 53 00 61 01 4E 09
  can0  0A6   [8]  A1 00 CF FF 6A FF 10 00
  can0  0A5   [8]  1B 00 60 01 4B 02 F3 03
  can0  0A4   [8]  01 00 00 00 00 00 00 00
  can0  0A3   [8]  97 0D 60 1E E7 9D 77 1E
  can0  0B0   [8]  68 00 58 00 5F 01 4C 09
  can0  0B0   [8]  6A 00 55 00 62 01 4A 09
  can0  0B0   [8]  6B 00 72 00 63 01 4C 09
  can0  0AD   [8]  D0 07 00 00 00 00 D2 00
  can0  0AC   [8]  6B 00 81 00 6F B5 00 00
  can0  0AB   [8]  00 00 00 00 00 00 00 00
  can0  0AA   [8]  06 00 08 06 00 01 C1 01
  can0  0A8   [8]  22 00 6E 4D F3 FF FD 00
  can0  0A7   [8]  4E 09 ED 00 DC FF EB 00
  can0  0B0   [8]  6C 00 9E 00 64 01 50 09
  can0  0A6   [8]  D7 FF 3B FF D1 00 13 00
  can0  0A5   [8]  11 0A 63 01 4F 02 F2 03
  can0  0A4   [8]  01 00 00 00 00 00 00 00
  can0  0A3   [8]  99 0D 80 1E E7 9D 87 1E
  can0  0B0   [8]  6C 00 A3 00 66 01 4C 09
  can0  0B0   [8]  6D 00 A3 00 65 01 4A 09
  can0  0B0   [8]  70 00 A0 00 66 01 47 09
  can0  0AD   [8]  A2 06 00 00 00 00 D8 00
  can0  0AC   [8]  70 00 96 00 73 B5 00 00
  can0  0AB   [8]  00 00 00 00 00 00 00 00
  can0  0AA   [8]  06 00 08 06 00 01 C1 01
  can0  0A8   [8]  22 00 6E 4D 1F 00 26 01
  can0  0A7   [8]  4A 09 CA 00 DA FF C6 00
  can0  0B0   [8]  72 00 9A 00 6A 01 4C 09
  can0  0A6   [8]  00 FF 01 01 F3 FF 19 00
  can0  0A5   [8]  15 06 66 01 54 02 F3 03
  can0  0A4   [8]  01 00 00 00 00 00 00 00
  can0  0A3   [8]  9A 0D 60 1E E8 A1 77 1E
  can0  0B0   [8]  73 00 4A 00 6D 01 4E 09
  can0  0B0   [8]  74 00 37 00 6C 01 47 09
  can0  0B0   [8]  74 00 21 00 6C 01 4A 09
  can0  0AD   [8]  04 08 00 00 00 00 E8 00
  can0  0AC   [8]  74 00 2F 00 77 B5 00 00
  can0  0AB   [8]  00 00 00 00 00 00 00 00
  can0  0AA   [8]  06 00 08 06 00 01 C1 01
  can0  0A8   [8]  22 00 6E 4D F3 FF 5D 00
  can0  0A7   [8]  4E 09 F4 00 D0 FF EF 00
  can0  0B0   [8]  74 00 2E 00 6E 01 50 09
  can0  0A6   [8]  24 00 38 00 B1 FF 13 00
  can0  0A5   [8]  4E 02 6C 01 5F 02 F3 03
  can0  0A4   [8]  01 00 00 00 00 00 00 00
  can0  0A3   [8]  9A 09 70 1E E7 A1 87 1E
  can0  0B0   [8]  79 00 68 00 70 01 54 09
  can0  0B0   [8]  7B 00 98 00 73 01 46 09
  can0  0B0   [8]  7D 00 C9 00 73 01 46 09
  can0  0AD   [8]  49 07 00 00 00 00 F1 00
  can0  0AC   [8]  7D 00 CB 00 7B B5 00 00
  can0  0AB   [8]  00 00 00 00 00 00 00 00
  can0  0AA   [8]  06 00 08 06 00 01 C1 01
  can0  0A8   [8]  22 00 6E 4D E7 FF 8F 01
  can0  0A7   [8]  46 09 DD 00 E3 FF DB 00
  can0  0B0   [8]  7E 00 CD 00 74 01 47 09
  can0  0A6   [8]  59 01 A5 FE 00 00 1C 00
  can0  0A5   [8]  BD 0C 73 01 6A 02 F3 03
  can0  0A4   [8]  01 00 00 00 00 00 00 00
  can0  0A3   [8]  9C 0D 70 1E E7 9D 87 1E
  can0  0B0   [8]  7F 00 A6 00 75 01 52 09
  can0  0B0   [8]  7C 00 6A 00 77 01 4C 09
  can0  0B0   [8]  7A 00 26 00 7B 01 4E 09
  can0  0AD   [8]  14 08 00 00 00 00 F3 00
  can0  0AC   [8]  7A 00 24 00 7F B5 00 00
  can0  0AB   [8]  00 00 00 00 00 00 00 00
  can0  0AA   [8]  06 00 08 06 00 01 C1 01
  can0  0A8   [8]  22 00 6E 4D FB FF 47 00
  can0  0A7   [8]  4A 09 F6 00 CE FF F0 00
  can0  0B0   [8]  79 00 36 00 7B 01 4E 09
  can0  0A6   [8]  DF FF DA FF 5F 00 16 00
  can0  0A5   [8]  4D 09 7B 01 77 02 F3 03
  can0  0A4   [8]  01 00 00 00 00 00 00 00
  can0  0A3   [8]  9B 0D 70 1E E7 9D 87 1E
  can0  0B0   [8]  78 00 6B 00 7C 01 44 09
  can0  0B0   [8]  77 00 AC 00 7D 01 47 09
  can0  0B0   [8]  77 00 B9 00 7E 01 47 09
  can0  0AE   [8]  10 00 4C 20 18 11 22 20
  can0  0AD   [8]  2B 07 00 00 00 00 E5 00
  can0  0AC   [8]  77 00 B4 00 83 B5 00 00
  can0  0AB   [8]  00 00 00 00 00 00 00 00
  can0  0AA   [8]  06 00 08 06 00 01 C1 01
  can0  0A9   [8]  97 00 FB 00 F7 01 9D 04
  can0  0B0   [8]  76 00 8E 00 84 01 4C 09
  can0  0A8   [8]  22 00 6E 4D 1A 00 61 01
  can0  0A7   [8]  44 09 DA 00 CE FF D4 00
  can0  0A6   [8]  D0 FE 34 01 00 00 1C 00
  can0  0A5   [8]  00 06 7F 01 7D 02 F3 03
  can0  0A4   [8]  01 00 00 00 00 00 00 00
  can0  0B0   [8]  76 00 37 00 84 01 4E 09
  can0  0A3   [8]  9A 0D 70 1E E9 A5 87 1E
  can0  0A2   [8]  F0 D8 F0 D8 CA FD 00 00
  can0  0A1   [8]  24 01 22 08 3D 08 F0 D8
  can0  0A0   [8]  28 01 29 01 2B 01 23 01
  can0  0B0   [8]  76 00 2F 00 86 01 4E 09
  can0  0B0   [8]  76 00 74 00 88 01 4A 09
  can0  0AD   [8]  57 08 00 00 00 00 E5 00
  can0  0AC   [8]  76 00 92 00 87 B5 00 00
  can0  0AB   [8]  00 00 00 00 00 00 00 00
  can0  0AA   [8]  06 00 08 06 00 01 C1 01
  can0  0A8   [8]  22 00 6E 4D CF FF 1F 01
  can0  0A7   [8]  4A 09 FD 00 D1 FF F9 00
  can0  0B0   [8]  76 00 AD 00 89 01 4A 09
  can0  0A6   [8]  13 00 F2 00 0F FF 16 00
  can0  0A5   [8]  FD 02 88 01 8D 02 F4 03
  can0  0A4   [8]  01 00 00 00 00 00 00 00
  can0  0A3   [8]  9A 0D 70 1E E9 A5 77 1E
  can0  0B0   [8]  73 00 AD 00 8B 01 47 09
  can0  0B0   [8]  72 00 59 00 87 01 4E 09
  can0  0B0   [8]  71 00 28 00 87 01 47 09
  can0  0AD   [8]  0E 08 00 00 00 00 E1 00
  can0  0AC   [8]  71 00 2F 00 8B B5 00 00
  can0  0AB   [8]  00 00 00 00 00 00 00 00
  can0  0AA   [8]  06 00 08 06 00 01 C1 01
  can0  0A8   [8]  22 00 6E 4D EB FF 5D 00
  can0  0A7   [8]  4C 09 F5 00 C7 FF EE 00
  can0  0B0   [8]  70 00 54 00 85 01 52 09
  can0  0A6   [8]  5D 00 E1 FF C7 FF 15 00
  can0  0A5   [8]  03 0E 87 01 8B 02 F6 03
  can0  0A4   [8]  01 00 00 00 00 00 00 00
  can0  0A3   [8]  99 0D 70 1E E7 9D 77 1E
  can0  0B0   [8]  70 00 7C 00 81 01 57 09
  can0  0B0   [8]  6E 00 93 00 7D 01 4A 09
  can0  0B0   [8]  6D 00 B2 00 78 01 54 09
  can0  0AD   [8]  28 07 00 00 00 00 D2 00
  can0  0AC   [8]  6D 00 AA 00 8F B5 00 00
  can0  0AB   [8]  00 00 00 00 00 00 00 00
  can0  0AA   [8]  06 00 08 06 00 01 C1 01
  can0  0A8   [8]  22 00 6E 4D 12 00 4D 01
  can0  0A7   [8]  4C 09 D9 00 DF FF D7 00
  can0  0B0   [8]  6C 00 96 00 74 01 44 09
  can0  0A6   [8]  F3 FF E5 FE 35 01 18 00
  can0  0A5   [8]  95 0A 78 01 72 02 F5 03
  can0  0A4   [8]  01 00 00 00 00 00 00 00
  can0  0A3   [8]  98 0D 70 1E E7 9D 87 1E
  can0  0B0   [8]  6C 00 55 00 6C 01 50 09
  can0  0B0   [8]  6B 00 55 00 6A 01 50 09
  can0  0B0   [8]  6F 00 4F 00 65 01 50 09
  can0  0AD   [8]  BF 06 00 00 00 00 DA 00
  can0  0AC   [8]  6F 00 46 00 93 B5 00 00
  can0  0AB   [8]  00 00 00 00 00 00 00 00
  can0  0AA   [8]  06 00 08 06 00 01 C1 01
  can0  0A8   [8]  22 00 6E 4D 19 00 8A 00
  can0  0A7   [8]  4E 09 CD 00 ED FF CC 00
  can0  0B0   [8]  71 00 5C 00 5E 01 54 09
  can0  0A6   [8]  7D FF 6F 00 ED FF 16 00
  can0  0A5   [8]  94 06 64 01 51 02 F5 03
  can0  0A4   [8]  01 00 00 00 00 00 00 00
  can0  0A3   [8]  9A 0D 70 1E E7 9D 87 1E
  can0  0B0   [8]  72 00 39 00 5D 01 4C 09
  can0  0B0   [8]  73 00 27 00 5B 01 46 09
  can0  0B0   [8]  73 00 37 00 58 01 4E 09
  can0  0AD   [8]  0D 08 00 00 00 00 E5 00
  can0  0AC   [8]  73 00 45 00 97 B5 00 00
  can0  0AB   [8]  00 00 00 00 00 00 00 00
  can0  0AA   [8]  06 00 08 06 00 01 C1 01
  can0  0A8   [8]  22 00 6E 4D 0F 00 88 00
  can0  0A7   [8]  4E 09 F5 00 D3 FF F0 00
  can0  0B0   [8]  74 00 4B 00 59 01 47 09
  can0  0A6   [8]  59 00 2C 00 49 FF 11 00
  can0  0A5   [8]  2E 02 58 01 3D 02 F4 03
  can0  0A4   [8]  01 00 00 00 00 00 00 00
  can0  0A3   [8]  9A 0D 70 1E E7 A1 87 1E
  can0  0B0   [8]  74 00 42 00 58 01 54 09
  can0  0B0   [8]  75 00 39 00 58 01 50 09
  can0  0B0   [8]  75 00 48 00 59 01 4C 09
  can0  0AD   [8]  01 08 00 00 00 00 E8 00
  can0  0AC   [8]  75 00 54 00 9B B5 00 00
  can0  0AB   [8]  00 00 00 00 00 00 00 00
  can0  0AA   [8]  06 00 08 06 00 01 C1 01
  can0  0A8   [8]  22 00 6E 4D F8 FF A4 00
  can0  0A7   [8]  46 09 F3 00 CC FF EE 00
  can0  0B0   [8]  75 00 68 00 59 01 4A 09
  can0  0A6   [8]  63 00 5C FF FF FF 12 00
  can0  0A5   [8]  E2 0B 59 01 3F 02 F1 03
  can0  0A4   [8]  01 00 00 00 00 00 00 00
  can0  0A3   [8]  9A 0D 70 1E E9 A5 87 1E
  can0  0B0   [8]  75 00 8E 00 59 01 50 09
  can0  0B0   [8]  6F 00 66 00 5B 01 47 09
  can0  0B0   [8]  6B 00 69 00 5C 01 46 09
  can0  0AD   [8]  AE 07 00 00 00 00 D0 00
  can0  0AC   [8]  6B 00 82 00 9F B5 00 00
  can0  0AB   [8]  00 00 00 00 00 00 00 00
  can0  0AA   [8]  06 00 08 06 00 01 C1 01
  can0  0A8   [8]  22 00 6E 4D D2 FF E5 00
  can0  0B0   [8]  68 00 65 00 5C 01 4A 09
  can0  0A7   [8]  46 09 EC 00 E5 FF EA 00
  can0  0A6   [8]  2F FF 0B 00 9A 00 13 00
  can0  0A5   [8]  A6 07 5C 01 43 02 F1 03
  can0  0A4   [8]  01 00 00 00 00 00 00 00
  can0  0A3   [8]  97 0D 80 1E E9 A5 77 1E
  can0  0B0   [8]  67 00 94 00 5D 01 4C 09
  can0  0B0   [8]  66 00 A7 00 5F 01 46 09
  can0  0B0   [8]  6E 00 A9 00 5D 01 4C 09
  can0  0AD   [8]  96 06 00 00 00 00 D4 00
  can0  0AC   [8]  6E 00 9B 00 A3 B5 00 00
  can0  0AB   [8]  00 00 00 00 00 00 00 00
  can0  0AA   [8]  06 00 08 06 00 01 C1 01
  can0  0A8   [8]  22 00 6E 4D DD FF 31 01
  can0  0A7   [8]  4C 09 C8 00 EA FF C7 00
  can0  0B0   [8]  72 00 A8 00 5F 01 4C 09
  can0  0A6   [8]  F5 FF 0F 01 BD FE 19 00
  can0  0A5   [8]  59 03 5D 01 45 02 F2 03
  can0  0A4   [8]  01 00 00 00 00 00 00 00
  can0  0A3   [8]  9B 0D 70 1E E8 A1 87 1E
  can0  0B0   [8]  76 00 B9 00 60 01 4E 09
  can0  0AE   [8]  10 00 4C 20 18 11 22 20
  can0  0A9   [8]  97 00 FB 00 F7 01 A4 04
  can0  0A2   [8]  F0 D8 F0 D8 CA FD 00 00
  can0  0A1   [8]  25 01 22 08 3D 08 F0 D8
  can0  0A0   [8]  27 01 29 01 2B 01 23 01
  can0  0B0   [8]  77 00 BB 00 5F 01 4E 09
  can0  0B0   [8]  79 00 7A 00 62 01 47 09
  can0  0AD   [8]  90 06 00 00 00 00 ED 00
  can0  0AC   [8]  79 00 6B 00 A7 B5 00 00
  can0  0AB   [8]  00 00 00 00 00 00 00 00
  can0  0AA   [8]  06 00 08 06 00 01 C1 01
  can0  0A8   [8]  22 00 6E 4D 47 00 D2 00
  can0  0A7   [8]  46 09 C7 00 CD FF C1 00
  can0  0B0   [8]  79 00 5E 00 62 01 4A 09
  can0  0A6   [8]  AD 00 31 FF EB FF 19 00
  can0  0A5   [8]  4B 0D 62 01 4E 02 F1 03
  can0  0A4   [8]  01 00 00 00 00 00 00 00
  can0  0A3   [8]  9B 0D 70 1E E7 9D 87 1E
  can0  0B0   [8]  74 00 3D 00 64 01 4C 09
  can0  0B0   [8]  70 00 3E 00 67 01 52 09
  can0  0B0   [8]  6E 00 31 00 6A 01 57 09
  can0  0AD   [8]  93 07 00 00 00 00 DA 00
  can0  0AC   [8]  6E 00 32 00 AB B5 00 00
  can0  0AB   [8]  00 00 00 00 00 00 00 00
  can0  0AA   [8]  06 00 08 06 00 01 C1 01
  can0  0A8   [8]  22 00 6E 4D FE FF 62 00
  can0  0A7   [8]  50 09 E6 00 D6 FF E3 00
  can0  0B0   [8]  6C 00 2F 00 69 01 50 09
  can0  0A6   [8]  CF FF CE FF 44 00 13 00
  can0  0A5   [8]  5B 09 6A 01 5A 02 F1 03
  can0  0A4   [8]  01 00 00 00 00 00 00 00
  can0  0A3   [8]  98 0D 70 1E E7 9D 87 1E
  can0  0B0   [8]  6B 00 61 00 6A 01 50 09
  can0  0B0   [8]  6B 00 79 00 69 01 4C 09
  can0  0B0   [8]  6B 00 95 00 69 01 4C 09
  can0  0AD   [8]  BD 07 00 00 00 00 CF 00
  can0  0AC   [8]  6B 00 9C 00 AF B5 00 00
